(100.0) X 0D7#0D00000005000500
(107.0) X 0C0#0000000000000000
(108.0) X 0A6#0400070006000000
(114.0) X 0DE#1000492025032220
(117.0) X 0C0#0000000000000000
(120.0) X 0DD#0000000000000000
(126.0) X 0C0#0000000000000000
(130.0) X 0A6#FCFF0700EFFF0000
(137.0) X 0C0#0000000000000000
(141.0) X 0DD#FFFF000000000000
(143.0) X 0D4#0000000000000000
(149.0) X 0AD#0000000000000000
(157.0) X 0C0#0000000000000000
(162.0) X 0DD#0000000000000000
(163.0) X 0D5#F303000000000EFC
(167.0) X 0C0#0000000000000000
(171.0) X 0AB#0000000000000000
(177.0) X 0C0#0000000000000000
(183.0) X 0DD#0100000000000000
(185.0) X 0D5#F203000000000EFC
(191.0) X 0AD#FFFF000000000000
(197.0) X 0C0#0000000000000000
(204.0) X 0DD#FFFF000000000000
(206.0) X 0D5#F203000000000EFC
(212.0) X 0AD#0000000000000000
(214.0) X 0A5#590100000000A8FE
(218.0) X 0F0#0000000000000000
(225.0) X 0DD#0000000000000000
(227.0) X 0D5#F203000000000EFC
(233.0) X 0AD#0100000000000000
(237.0) X 0C0#0000000000000000
(246.0) X 0DD#FFFF000000000000
(248.0) X 0D6#0300030000000000
(254.0) X 0AD#FFFF000000000000
(256.0) X 0A5#590100000000A8FE
(267.0) X 0C0#0000000000000000
(269.0) X 0D6#FBFFFEFF00000000
(272.0) X 0AE#1000492025032220
(276.0) X 0AA#0400090000004000
(288.0) X 0DD#0000000000000000
(290.0) X 0D5#F203000000000EFC
(296.0) X 0AD#FFFF000000000000
(299.0) X 0A3#E825731EE9A5971E
(308.0) X 0C0#0000000000000000
(310.0) X 0DD#FFFF000000000000
(317.0) X 0C0#0000000000000000
(319.0) X 0A6#FBFFFBFFF4FF0000
(327.0) X 0C0#0000000000000000
(330.0) X 0DD#FFFF000000000000
(332.0) X 0D5#F203000000000EFC
(337.0) X 0C0#0000000000000000
(340.0) X 0A3#E825831EE8A5971E
(348.0) X 0C0#0000000000000000
(352.0) X 0DD#FFFF000000000000
(357.0) X 0C0#0000000000000000
(360.0) X 0AD#0000000000000000
(367.0) X 0C0#0000000000000000
(373.0) X 0DC#00000000B7DC0B00
(375.0) X 0A1#150103081608F0D8
(380.0) X 0AD#FFFF000000000000
(388.0) X 0C0#0000000000000000
(394.0) X 0DD#0000000000000000
(396.0) X 0D5#F203000000000EFC
(402.0) X 0AD#FFFF000000000000
(403.0) X 0A5#580100000000A8FE
(407.0) X 0C0#0000000000000000
(414.0) X 0DD#0000000000000000
(416.0) X 0D4#0000000000000000
(421.0) X 0D2#F0D8F0D8E0000000
(428.0) X 0C0#0000000000000000
(436.0) X 0DD#FFFF000000000000
(438.0) X 0D5#F203000000000EFC
(444.0) X 0AD#FFFF000000000000
(445.0) X 0A5#580100000000A8FE
(457.0) X 0DD#FFFF000000000000
(458.0) X 0D6#0000000007000000
(464.0) X 0AD#0000000000000000
(466.0) X 0A5#590100000000A8FE
(477.0) X 0AE#1000492025032220
(479.0) X 0DC#0000FFFFDADC0B00
(486.0) X 0AD#FFFF000000000000
(487.0) X 0A5#590100000000A8FE
(497.0) X 0C0#0000000000000000
(499.0) X 0DB#0000000000000000
(506.0) X 0AD#FFFF000000000000
(508.0) X 0A5#590100000000A8FE
(518.0) X 0C0#0000000000000000
(520.0) X 0DD#0000000000000000
(522.0) X 0D4#0000000000000000
(528.0) X 0C0#0000000000000000
(538.0) X 0C0#0000000000000000
(541.0) X 0DD#0100000000000000
(542.0) X 0D5#F203000000000EFC
(547.0) X 0C0#0000000000000000
(551.0) X 0A3#E825831EE8A5A71E
(558.0) X 0C0#0000000000000000
(562.0) X 0DD#FFFF000000000000
(568.0) X 0C0#0000000000000000
(570.0) X 0AD#FFFF000000000000
(578.0) X 0C0#0000000000000000
(579.0) X 0A1#150103081608F0D8
(583.0) X 0DC#00000100FDDC0B00
(588.0) X 0C0#0000000000000000
(592.0) X 0A6#FEFF0000FDFF0000
(598.0) X 0C0#0000000000000000
(604.0) X 0DD#FFFF000000000000
(606.0) X 0D4#0000000000000000
(612.0) X 0AD#FFFF000000000000
(618.0) X 0C0#0000000000000000
(625.0) X 0DD#FFFF000000000000
(627.0) X 0D7#0E000000FDFFFDFF
(633.0) X 0AD#FFFF000000000000
(634.0) X 0A5#590100000000A8FE
(647.0) X 0DD#FFFF000000000000
(648.0) X 0D5#F203000000000EFC
(654.0) X 0AD#FFFF000000000000
(656.0) X 0A5#580100000000A8FE
(667.0) X 0DD#FFFF000000000000
(669.0) X 0D6#00000000FFFF0000
(675.0) X 0AD#0000000000000000
(676.0) X 0A5#580100000000A8FE
(681.0) X 0AE#1000492025032220
(688.0) X 0C0#0000000000000000
(690.0) X 0D6#0300FEFF04000000
(696.0) X 0AD#FFFF000000000000
(699.0) X 0F0#0000000000000000
(708.0) X 0C0#0000000000000000
(710.0) X 0DB#0000000000000000
(717.0) X 0AD#0000000000000000
(719.0) X 0A5#580100000000A8FE
(728.0) X 0DE#1000492025032220
(731.0) X 0DD#FFFF000000000000
(732.0) X 0D5#F203000000000EFC
(738.0) X 0C0#0000000000000000
(741.0) X 0A3#E825831EE8A5971E
(748.0) X 0C0#0000000000000000
(751.0) X 0DD#FFFF000000000000
(758.0) X 0C0#0000000000000000
(760.0) X 0AA#0400090000004000
(769.0) X 0C0#0000000000000000
(773.0) X 0DD#FFFF000000000000
(774.0) X 0D5#F203000000000EFC
(779.0) X 0C0#0000000000000000
(782.0) X 0A5#570100000000A8FE
(788.0) X 0C0#0000000000000000
(793.0) X 0DD#FFFF000000000000
(796.0) X 0D3#E821831EE6A5971E
(801.0) X 0AD#0000000000000000
(808.0) X 0C0#0000000000000000
(815.0) X 0DD#0000000000000000
(817.0) X 0D5#F103000000000EFC
(819.0) X 0F0#0000000000000000
(823.0) X 0AA#0400090000004000
(828.0) X 0C0#0000000000000000
(836.0) X 0DD#FFFF000000000000
(837.0) X 0D5#F203000000000EFC
(843.0) X 0AD#FFFF000000000000
(848.0) X 0C0#0000000000000000
(857.0) X 0DD#0000000000000000
(859.0) X 0D5#F203000000000EFC
(865.0) X 0AD#FFFF000000000000
(866.0) X 0A5#580100000000A8FE
(870.0) X 1B6#0000000000000000
(878.0) X 0DD#FFFF000000000000
(879.0) X 0D6#00000100FEFF0000
(885.0) X 0AD#FFFF000000000000
(888.0) X 0A3#E825831EE8A5971E
(899.0) X 0C0#0000000000000000
(901.0) X 0D6#FEFFFEFFF6FF0000
(907.0) X 0AD#FFFF000000000000
(909.0) X 0A5#580100000000A8FE
(919.0) X 0C0#0000000000000000
(920.0) X 0DB#0000000000000000
(927.0) X 0AD#0000000000000000
(929.0) X 0A5#580100000000A8FE
(932.0) X 0D9#9600FB00FC018804
(939.0) X 0C0#0000000000000000
(942.0) X 0DC#0000000074DD0B00
(949.0) X 0C0#0000000000000000
(951.0) X 0A6#F8FFFAFFFBFF0000
(959.0) X 0C0#0000000000000000
(962.0) X 0DD#FFFF000000000000
(964.0) X 0D3#E721831EE7A5971E
(969.0) X 0C0#0000000000000000
(978.0) X 0C0#0000000000000000
(983.0) X 0DD#0000000000000000
(985.0) X 0D5#F303000000000EFC
(988.0) X 0AE#1000492025032220
(992.0) X 0A7#070000000D000300
(999.0) X 0C0#0000000000000000
(1004.0) X 0DD#FFFF000000000000
(1006.0) X 0D4#0000000000000000
(1012.0) X 0AD#FFFF000000000000
(1018.0) X 0C0#0000000000000000
(1026.0) X 0DD#FFFF000000000000
(1027.0) X 0D5#F203000000000EFC
(1033.0) X 0AD#FFFF000000000000
(1035.0) X 0A5#580100000000A9FE
(1039.0) X 0C0#0000000000000000
(1046.0) X 0DD#FFFF000000000000
(1048.0) X 0D4#0000000000000000
(1054.0) X 0AD#FFFF000000000000
(1059.0) X 0C0#0000000000000000
(1068.0) X 0DD#0000000000000000
(1069.0) X 0D5#F203000000000EFC
(1075.0) X 0AD#0000000000000000
(1077.0) X 0A5#570100000000A9FE
(1088.0) X 0DD#FFFF000000000000
(1090.0) X 0D6#0400020002000000
(1096.0) X 0AD#FFFF000000000000
(1098.0) X 0A5#570100000000A9FE
(1110.0) X 0C0#0000000000000000
(1111.0) X 0D6#04000200FFFF0000
(1117.0) X 0AD#0000000000000000
(1119.0) X 0A5#570100000000A9FE
(1129.0) X 0C0#0000000000000000
(1131.0) X 0DB#0000000000000000
(1136.0) X 0DE#1000492025032220
(1138.0) X 0AD#FFFF000000000000
(1149.0) X 0C0#0000000000000000
(1152.0) X 0DD#FFFF000000000000
(1154.0) X 0D3#E821831EE7A5971E
(1159.0) X 0C0#0000000000000000
(1169.0) X 0C0#0000000000000000
(1172.0) X 0DD#0000000000000000
(1174.0) X 0D5#F203000000000EFC
(1179.0) X 0C0#0000000000000000
(1189.0) X 0C0#0000000000000000
(1192.0) X 0AE#1000492025032220
(1193.0) X 0DB#0000000000000000
(1200.0) X 0C0#0000000000000000
(1203.0) X 0A5#580100000000A9FE
(1209.0) X 0C0#0000000000000000
(1214.0) X 0DD#FFFF000000000000
(1219.0) X 0C0#0000000000000000
(1222.0) X 0AD#0000000000000000
(1229.0) X 0C0#0000000000000000
(1235.0) X 0DD#FFFF000000000000
(1238.0) X 0D5#F203000000000EFC
(1244.0) X 0AD#FFFF000000000000
(1245.0) X 0A5#570100000000A9FE
(1250.0) X 0F0#0000000000000000
(1257.0) X 0DD#FFFF000000000000
(1259.0) X 0C0#0000000000000000
(1264.0) X 0AD#0000000000000000
(1269.0) X 0C0#0000000000000000
(1277.0) X 0DD#0000000000000000
(1280.0) X 0D5#F103000000000EFC
(1286.0) X 0AD#FFFF000000000000
(1287.0) X 0A5#580100000000A9FE
(1295.0) X 0AE#1000492025032220
(1299.0) X 0DD#FFFF000000000000
(1301.0) X 0D3#E821831EE7A1971E
(1306.0) X 0AD#FFFF000000000000
(1319.0) X 0C0#0000000000000000
(1321.0) X 0D6#0100020001000000
(1328.0) X 0AD#FFFF000000000000
(1330.0) X 0A5#570100000000A9FE
(1340.0) X 0C0#0000000000000000
(1341.0) X 0DC#00000200F9DD0B00
(1344.0) X 0D1#1E019605A605F0D8
(1349.0) X 0AD#FFFF000000000000
(1359.0) X 0C0#0000000000000000
(1361.0) X 0DD#FFFF000000000000
(1363.0) X 0D3#E721831EE7A1971E
(1370.0) X 0C0#0000000000000000
(1380.0) X 0C0#0000000000000000
(1383.0) X 0DD#0000000000000000
(1385.0) X 0D5#F103000000000EFC
(1390.0) X 0C0#0000000000000000
(1396.0) X 0AE#1000492025032220
(1399.0) X 0C0#0000000000000000
(1403.0) X 0DD#FFFF000000000000
(1410.0) X 0C0#0000000000000000
(1412.0) X 0AC#000002001CDE0B00
(1420.0) X 0C0#0000000000000000
(1425.0) X 0DD#FFFF000000000000
(1427.0) X 0D5#F203000000000EFC
(1433.0) X 0AD#FFFF000000000000
(1443.0) X 0DE#1000492025032220
(1446.0) X 0DD#FFFF000000000000
(1448.0) X 0D4#0000000000000000
(1454.0) X 0AD#FFFF000000000000
(1460.0) X 0C0#0000000000000000
(1467.0) X 0DD#0100000000000000
(1469.0) X 0D5#F203000000000EFC
(1475.0) X 0AD#FFFF000000000000
(1477.0) X 0A5#570100000000A9FE
(1488.0) X 0DD#0100000000000000
(1489.0) X 0D5#F103000000000EFC
(1496.0) X 0AD#0000000000000000
(1498.0) X 0A5#560100000000A9FE
(1509.0) X 0DD#0000000000000000
(1511.0) X 0D6#0000000004000000
(1517.0) X 0AD#FFFF000000000000
(1519.0) X 0A5#570100000000AAFE
(1530.0) X 0C0#0000000000000000
(1531.0) X 0D6#0000FBFF00000000
(1539.0) X 0AD#FFFF000000000000
(1540.0) X 0A5#560100000000AAFE
(1545.0) X 0DE#1000492025032220
(1550.0) X 0C0#0000000000000000
(1553.0) X 0D5#F203000000000EFC
(1559.0) X 0AD#0000000000000000
(1570.0) X 0C0#0000000000000000
(1572.0) X 0DD#0000000000000000
(1574.0) X 0D3#E721831EE7A1971E
(1581.0) X 0C0#0000000000000000
(1590.0) X 0C0#0000000000000000
(1593.0) X 0DD#0000000000000000
(1595.0) X 0D5#F203000000000EFC
(1600.0) X 0C0#0000000000000000
(1604.0) X 0A3#E825831EE8A5A71E
(1610.0) X 0C0#0000000000000000
(1614.0) X 0DD#0000000000000000
(1620.0) X 0C0#0000000000000000
(1623.0) X 0AC#0000010062DE0B00
(1631.0) X 0C0#0000000000000000
(1636.0) X 0DD#FFFF000000000000
(1637.0) X 0D5#F303000000000EFC
(1643.0) X 0AD#FFFF000000000000
(1647.0) X 0DE#1000492025032220
(1650.0) X 0F0#0000000000000000
(1656.0) X 0DD#FFFF000000000000
(1660.0) X 0C0#0000000000000000
(1665.0) X 0AC#0000000070DE0B00
(1671.0) X 0C0#0000000000000000
(1678.0) X 0DD#0000000000000000
(1679.0) X 0D5#F203000000000EFC
(1685.0) X 0AD#FFFF000000000000
(1690.0) X 0C0#0000000000000000
(1698.0) X 0DD#FFFF000000000000
(1700.0) X 0D5#F203000000000EFC
(1703.0) X 0AE#1000492025032220
(1708.0) X 0A8#1300AFC900000000
(1720.0) X 0DD#FFFF000000000000
(1721.0) X 0D6#FBFFFBFFF6FF0000
(1727.0) X 0AD#0000000000000000
(1729.0) X 0A5#580100000000A9FE
(1740.0) X 0C0#0000000000000000
(1742.0) X 0D6#0200FEFF04000000
(1748.0) X 0AD#FFFF000000000000
(1751.0) X 0A5#580100000000A9FE
(1761.0) X 0C0#0000000000000000
(1762.0) X 0DB#0000000000000000
(1770.0) X 0AD#0000000000000000
(1771.0) X 0A5#580100000000A9FE
(1780.0) X 0C0#0000000000000000
(1782.0) X 0DD#FFFF000000000000
(1785.0) X 0D3#E721831EE7A1871E
(1790.0) X 0C0#0000000000000000
(1801.0) X 0C0#0000000000000000
(1804.0) X 0DD#FFFF000000000000
(1806.0) X 0D5#F203000000000EFC
(1811.0) X 0C0#0000000000000000
(1820.0) X 0C0#0000000000000000
(1825.0) X 0DD#FFFF000000000000
(1826.0) X 0D5#F203000000000EFC
(1830.0) X 0C0#0000000000000000
(1835.0) X 0A5#570100000000A9FE
(1841.0) X 0C0#0000000000000000
(1846.0) X 0DD#FFFF000000000000
(1851.0) X 0C0#0000000000000000
(1854.0) X 0AD#0000000000000000
(1861.0) X 0C0#0000000000000000
(1867.0) X 0DD#FFFF000000000000
(1868.0) X 0D5#F303000000000EFC
(1874.0) X 0AD#0000000000000000
(1876.0) X 0A5#580100000000A9FE
(1881.0) X 0F0#0000000000000000
(1888.0) X 0DD#0000000000000000
(1891.0) X 0C0#0000000000000000
(1896.0) X 0AD#FFFF000000000000
(1901.0) X 0C0#0000000000000000
(1908.0) X 0AE#1000492025032220
(1909.0) X 0DB#0000000000000000
(1917.0) X 0AD#FFFF000000000000
(1918.0) X 0A5#580100000000A9FE
(1930.0) X 0DD#0000000000000000
(1932.0) X 0D6#FBFF0100FCFF0000
(1938.0) X 0AD#0000000000000000
(1940.0) X 0A5#580100000000A9FE
(1951.0) X 0C0#0000000000000000
(1952.0) X 0D6#FEFFF6FF00000000
(1955.0) X 0D0#D600D800D7001901
(1960.0) X 0A8#1300AFC901000000
(1971.0) X 0C0#0000000000000000
(1973.0) X 0DB#0000000000000000
(1980.0) X 0AD#0000000000000000
(1982.0) X 0A5#580100000000A9FE
(1991.0) X 0C0#0000000000000000
(1993.0) X 0DD#0000000000000000
(1995.0) X 0D3#E821831EE8A5871E
(2001.0) X 0C0#0000000000000000
(2010.0) X 0AE#1000492025032220
(2015.0) X 0DD#0000000000000000
(2016.0) X 0D5#F203000000000EFC
(2021.0) X 0C0#0000000000000000
(2024.0) X 0A6#0000020003000000
(2031.0) X 0C0#0000000000000000
(2035.0) X 0DD#FFFF000000000000
(2041.0) X 0C0#0000000000000000
(2043.0) X 0AD#FFFF000000000000
(2050.0) X 1B5#0004000000260000
(2052.0) X 1B8#0000000000000000
(2057.0) X 0DD#FFFF000000000000
(2061.0) X 0C0#0000000000000000
(2066.0) X 0A6#FEFFFBFFFBFF0000
(2071.0) X 0C0#0000000000000000
(2077.0) X 0DD#FFFF000000000000
(2085.0) X 0AD#0000000000000000
(2092.0) X 0C0#0000000000000000
(2099.0) X 0DD#0000000000000000
(2100.0) X 0D5#F203000000000EFC
(2106.0) X 0AD#0000000000000000
(2108.0) X 0A5#580100000000A9FE
(2112.0) X 0AE#1000492025032220
(2119.0) X 0DD#0000000000000000
(2121.0) X 0C0#0000000000000000
(2127.0) X 0AD#0000000000000000
(2131.0) X 0C0#0000000000000000
(2141.0) X 0DD#FFFF000000000000
(2143.0) X 0D6#0300080004000000
(2149.0) X 0AD#FFFF000000000000
(2150.0) X 0A5#580100000000A9FE
(2158.0) X 0DE#1000492025032220
(2161.0) X 0C0#0000000000000000
(2163.0) X 0D4#0000000000000000
(2169.0) X 0AD#0000000000000000
(2182.0) X 0C0#0000000000000000
(2183.0) X 0DB#0000000000000000
(2191.0) X 0AD#0100000000000000
(2192.0) X 0A5#560100000000A9FE
(2201.0) X 0C0#0000000000000000
(2204.0) X 0DD#0000000000000000
(2206.0) X 0D3#E821731EE7A1871E
(2211.0) X 0C0#0000000000000000
(2215.0) X 0A1#150103081608F0D8
(2222.0) X 0C0#0000000000000000
(2225.0) X 0DD#FFFF000000000000
(2232.0) X 0C0#0000000000000000
(2234.0) X 0A7#0600000018000300
(2242.0) X 0C0#0000000000000000
(2246.0) X 0DD#FFFF000000000000
(2248.0) X 0D3#E721831EE7A1871E
(2253.0) X 0AD#FFFF000000000000
(2260.0) X 0DE#1000492025032220
(2267.0) X 0DD#FFFF000000000000
(2269.0) X 0D5#F203000000000EFC
(2272.0) X 0C0#0000000000000000
(2276.0) X 0A7#0600000006000300
(2282.0) X 0C0#0000000000000000
(2288.0) X 0DD#0100000000000000
(2290.0) X 0D3#E725731EE7A5971E
(2295.0) X 0AD#0000000000000000
(2301.0) X 0C0#0000000000000000
(2309.0) X 0DD#0000000000000000
(2311.0) X 0D5#F203000000000EFC
(2317.0) X 0AD#0000000000000000
(2319.0) X 0A7#060000000D000100
(2330.0) X 0DD#FFFF000000000000
(2332.0) X 0D5#F203000000000EFC
(2338.0) X 0AD#FFFF000000000000
(2339.0) X 0A5#570100000000A9FE
(2351.0) X 0DD#0000000000000000
(2353.0) X 0D6#FBFFFCFFF6FF0000
(2359.0) X 0AD#FFFF000000000000
(2361.0) X 0A5#580100000000A9FE
(2372.0) X 0C0#0000000000000000
(2373.0) X 0D6#0300070000000000
(2380.0) X 0AD#FFFF000000000000
(2381.0) X 0A5#580100000000A9FE
(2392.0) X 0C0#0000000000000000
(2394.0) X 0DB#0000000000000000
(2401.0) X 0AD#0000000000000000
(2403.0) X 0A5#580100000000A9FE
(2412.0) X 0C0#0000000000000000
(2414.0) X 0DD#0000000000000000
(2416.0) X 0D3#E721831EE7A5971E
(2422.0) X 0C0#0000000000000000
(2433.0) X 0C0#0000000000000000
(2436.0) X 0DD#FFFF000000000000
(2437.0) X 0D5#F203000000000EFC
(2442.0) X 0C0#0000000000000000
(2452.0) X 0C0#0000000000000000
(2456.0) X 0DD#FFFF000000000000
(2458.0) X 0D5#F203000000000EFC
(2462.0) X 0C0#0000000000000000
(2465.0) X 0A6#0000020000000000
(2472.0) X 0C0#0000000000000000
(2478.0) X 0DD#0100000000000000
(2482.0) X 0C0#0000000000000000
(2485.0) X 0AD#FFFF000000000000
(2492.0) X 0C0#0000000000000000
(2498.0) X 0DD#FFFF000000000000
(2500.0) X 0D5#F203000000000EFC
(2506.0) X 0AD#0000000000000000
(2508.0) X 0A5#580100000000A8FE
(2512.0) X 0F0#0000000000000000
(2520.0) X 0DD#0000000000000000
(2522.0) X 0A2#F0D8F0D8E7000000
(2528.0) X 0AD#0000000000000000
(2532.0) X 0C0#0000000000000000
(2540.0) X 0DD#0000000000000000
(2542.0) X 0D5#F203000000000EFC
(2548.0) X 0AD#FFFF000000000000
(2550.0) X 0A5#580100000000A8FE
(2562.0) X 0DD#0000000000000000
(2564.0) X 0D6#0200010009000000
(2568.0) X 0DE#1000492025032220
(2571.0) X 0A8#1300AFC9F8FF0D00
(2582.0) X 0C0#0000000000000000
(2584.0) X 0D6#FBFFFCFF12000000
(2590.0) X 0AD#0000000000000000
(2592.0) X 0A5#570100000000A8FE
(2603.0) X 0C0#0000000000000000
(2605.0) X 0DB#0000000000000000
(2612.0) X 0AD#FFFF000000000000
(2613.0) X 0A5#580100000000A9FE
(2622.0) X 0C0#0000000000000000
(2624.0) X 0A1#140103081608F0D8
(2627.0) X 0D3#E721831EE7A1971E
(2632.0) X 0C0#0000000000000000
(2642.0) X 0C0#0000000000000000
(2646.0) X 0DD#0000000000000000
(2648.0) X 0D5#F303000000000EFC
(2653.0) X 0C0#0000000000000000
(2663.0) X 0C0#0000000000000000
(2667.0) X 0DD#0100000000000000
(2668.0) X 0D5#F203000000000EFC
(2672.0) X 0C0#0000000000000000
(2676.0) X 0A5#570100000000A9FE
(2682.0) X 0C0#0000000000000000
(2688.0) X 0DD#0000000000000000
(2693.0) X 0C0#0000000000000000
(2696.0) X 0AD#FFFF000000000000
(2703.0) X 0C0#0000000000000000
(2709.0) X 0DD#0100000000000000
(2710.0) X 0D5#F303000000000EFC
(2717.0) X 0AD#FFFF000000000000
(2718.0) X 0A5#570100000000A9FE
(2723.0) X 0F0#0000000000000000
(2729.0) X 0DD#FFFF000000000000
(2733.0) X 0C0#0000000000000000
(2738.0) X 0AD#0000000000000000
(2743.0) X 0C0#0000000000000000
(2751.0) X 0DD#FFFF000000000000
(2753.0) X 0D5#F203000000000EFC
(2759.0) X 0AD#0000000000000000
(2760.0) X 0A5#570100000000A9FE
(2771.0) X 0DD#FFFF000000000000
(2774.0) X 0D8#1300D3E405000100
(2781.0) X 0AA#0400090000004000
(2793.0) X 0C0#0000000000000000
(2795.0) X 0D6#0000020003000000
(2801.0) X 0AD#FFFF000000000000
(2802.0) X 0A5#570100000000A9FE
(2812.0) X 0C0#0000000000000000
(2814.0) X 0DB#0000000000000000
(2822.0) X 0AD#FFFF000000000000
(2824.0) X 0A5#570100000000A9FE
(2828.0) X 0AE#1000492025032220
(2833.0) X 0C0#0000000000000000
(2836.0) X 0DA#0400090000004000
(2843.0) X 0C0#0000000000000000
(2845.0) X 0A4#0000000000000000
(2853.0) X 0C0#0000000000000000
(2856.0) X 0DD#FFFF000000000000
(2863.0) X 0C0#0000000000000000
(2865.0) X 0AA#0400090000004000
(2873.0) X 0C0#0000000000000000
(2875.0) X 0D1#1D019605A605F0D8
(2878.0) X 0DA#0400090000004000
(2883.0) X 0C0#0000000000000000
(2887.0) X 0A3#E821831EE9A5971E
(2893.0) X 0C0#0000000000000000
(2898.0) X 0DD#FFFF000000000000
(2904.0) X 0C0#0000000000000000
(2907.0) X 0AD#0000000000000000
(2913.0) X 0C0#0000000000000000
(2919.0) X 0DD#FFFF000000000000
(2921.0) X 0D5#F203000000000EFC
(2927.0) X 0AD#FFFF000000000000
(2929.0) X 0A3#E825831EE9A5A71E
(2940.0) X 0DD#FFFF000000000000
(2942.0) X 0D5#F103000000000EFC
(2949.0) X 0AD#FFFF000000000000
(2950.0) X 0A5#590100000000A9FE
(2961.0) X 0DD#FFFF000000000000
(2963.0) X 0D5#F203000000000EFC
(2969.0) X 1B5#0004000000260000
(2971.0) X 0A6#FFFF0000FEFF0000
(2976.0) X 0DE#1000492025032220
(2982.0) X 0DD#FFFF000000000000
(2984.0) X 0D5#F203000000000EFC
(2991.0) X 0AD#FFFF000000000000
(3003.0) X 0C0#0000000000000000
(3005.0) X 0D6#0200050000000000
(3011.0) X 0AD#0100000000000000
(3013.0) X 0A5#580100000000A8FE
(3023.0) X 0C0#0000000000000000
(3025.0) X 0DB#0000000000000000
(3033.0) X 0AD#FFFF000000000000
(3035.0) X 0A7#0100000006000500
(3044.0) X 0C0#0000000000000000
(3046.0) X 0DD#FFFF000000000000
(3048.0) X 0D3#E721831EE8A5971E
(3053.0) X 0C0#0000000000000000
(3063.0) X 0C0#0000000000000000
(3066.0) X 0DD#0000000000000000
(3068.0) X 0D5#F303000000000EFC
(3074.0) X 0C0#0000000000000000
(3079.0) X 0DE#1000492025032220
(3084.0) X 0C0#0000000000000000
(3088.0) X 0DD#FFFF000000000000
(3094.0) X 0C0#0000000000000000
(3096.0) X 0AC#000001004CE00B00
(3103.0) X 0C0#0000000000000000
(3108.0) X 0DD#FFFF000000000000
(3110.0) X 0D5#F303000000000EFC
(3117.0) X 0AD#0000000000000000
(3124.0) X 0C0#0000000000000000
(3130.0) X 0DD#0000000000000000
(3132.0) X 0D5#F203000000000EFC
(3135.0) X 0AE#1000492025032220
(3139.0) X 0A8#1300AFC90200F9FF
(3143.0) X 0C0#0000000000000000
(3150.0) X 0DD#0000000000000000
(3152.0) X 0D4#0000000000000000
(3159.0) X 0AD#FFFF000000000000
(3164.0) X 0C0#0000000000000000
(3172.0) X 0DD#FFFF000000000000
(3174.0) X 0D5#F203000000000EFC
(3180.0) X 0AD#0000000000000000
(3181.0) X 0A5#580100000000A8FE
(3193.0) X 0DD#FFFF000000000000
(3194.0) X 0D6#0200050003000000
(3201.0) X 0AD#FFFF000000000000
(3203.0) X 0A5#580100000000A8FE
(3214.0) X 0C0#0000000000000000
(3216.0) X 0D6#FDFFFDFFFBFF0000
(3222.0) X 0AD#FFFF000000000000
(3223.0) X 0A5#580100000000A8FE
(3234.0) X 0C0#0000000000000000
(3235.0) X 0DB#0000000000000000
(3238.0) X 0D4#0000000000000000
(3243.0) X 0AD#0000000000000000
(3254.0) X 0C0#0000000000000000
(3256.0) X 0DD#FFFF000000000000
(3258.0) X 0D3#E721831EE7A5971E
(3264.0) X 0C0#0000000000000000
(3274.0) X 0C0#0000000000000000
(3277.0) X 0DD#FFFF000000000000
(3278.0) X 0D5#F203000000000EFC
(3283.0) X 0DE#1000492025032220
(3294.0) X 0C0#0000000000000000
(3298.0) X 0DD#FFFF000000000000
(3300.0) X 0D5#F203000000000EFC
(3304.0) X 0C0#0000000000000000
(3308.0) X 0A5#580100000000A9FE
(3314.0) X 0C0#0000000000000000
(3319.0) X 0DD#FFFF000000000000
(3324.0) X 0C0#0000000000000000
(3328.0) X 0AD#FFFF000000000000
(3334.0) X 0C0#0000000000000000
(3339.0) X 0AE#1000492025032220
(3341.0) X 0DB#0000000000000000
(3348.0) X 0AD#FFFF000000000000
(3350.0) X 0A5#580100000000A9FE
(3354.0) X 0C0#0000000000000000
(3361.0) X 0DD#0000000000000000
(3364.0) X 0C0#0000000000000000
(3369.0) X 0AD#FFFF000000000000
(3375.0) X 0C0#0000000000000000
(3383.0) X 0DD#FFFF000000000000
(3384.0) X 0D5#F203000000000EFC
(3390.0) X 0AD#0000000000000000
(3392.0) X 0A5#580100000000A8FE
(3403.0) X 0DD#FFFF000000000000
(3405.0) X 0D6#00000400FEFF0000
(3411.0) X 0AD#FFFF000000000000
(3414.0) X 0A5#580100000000A8FE
(3424.0) X 0C0#0000000000000000
(3426.0) X 0D6#F8FFFFFF01000000
(3432.0) X 0AD#FFFF000000000000
(3434.0) X 0A5#590100000000A8FE
(3441.0) X 0AE#1000492025032220
(3445.0) X 0DD#0100000000000000
(3453.0) X 0AD#0000000000000000
(3456.0) X 0A5#580100000000A8FE
(3465.0) X 0C0#0000000000000000
(3467.0) X 0DD#FFFF000000000000
(3469.0) X 0D3#E721831EE7A1971E
(3474.0) X 0C0#0000000000000000
(3484.0) X 0C0#0000000000000000
(3487.0) X 0DD#FFFF000000000000
(3489.0) X 0D7#0A00000003000000
(3494.0) X 0C0#0000000000000000
(3505.0) X 0C0#0000000000000000
(3509.0) X 0DD#FFFF000000000000
(3511.0) X 0D5#F203000000000EFC
(3515.0) X 0C0#0000000000000000
(3518.0) X 0A6#FCFFF8FFF9FF0000
(3524.0) X 0C0#0000000000000000
(3529.0) X 0DD#FFFF000000000000
(3534.0) X 0C0#0000000000000000
(3537.0) X 0AD#FFFF000000000000
(3544.0) X 0AE#1000492025032220
(3551.0) X 0DD#FFFF000000000000
(3553.0) X 0D5#F203000000000EFC
(3559.0) X 0AD#FFFF000000000000
(3560.0) X 0A5#580100000000A8FE
(3565.0) X 0F0#0000000000000000
(3572.0) X 0DD#0000000000000000
(3574.0) X 0C0#0000000000000000
(3579.0) X 0AD#FFFF000000000000
(3585.0) X 0C0#0000000000000000
(3590.0) X 0DE#1000492025032220
(3593.0) X 0DD#FFFF000000000000
(3601.0) X 0AD#0000000000000000
(3602.0) X 0A5#580100000000A8FE
(3614.0) X 0DD#FFFF000000000000
(3615.0) X 0D6#03000000FFFF0000
(3621.0) X 0AD#FFFF000000000000
(3623.0) X 0A5#580100000000A8FE
(3635.0) X 0C0#0000000000000000
(3637.0) X 0D6#FEFF0800EDFF0000
(3643.0) X 0AD#FFFF000000000000
(3645.0) X 0A5#590100000000A8FE
(3655.0) X 0C0#0000000000000000
(3656.0) X 0DB#0000000000000000
(3663.0) X 0AD#FFFF000000000000
(3665.0) X 0A5#580100000000A8FE
(3675.0) X 0C0#0000000000000000
(3677.0) X 0DD#0000000000000000
(3679.0) X 0D3#E721731EE7A1871E
(3685.0) X 0C0#0000000000000000
(3692.0) X 0DE#1000492025032220
(3695.0) X 0C0#0000000000000000
(3698.0) X 0DD#FFFF000000000000
(3705.0) X 0C0#0000000000000000
(3707.0) X 0A7#060000000D000500
(3715.0) X 0C0#0000000000000000
(3719.0) X 0DD#0000000000000000
(3722.0) X 0D3#E825831EE7A1971E
(3727.0) X 0AD#FFFF000000000000
(3735.0) X 0C0#0000000000000000
(3740.0) X 0DD#FFFF000000000000
(3742.0) X 0D5#F203000000000EFC
(3745.0) X 0C0#0000000000000000
(3749.0) X 0A9#9600FA00FD01A004
(3756.0) X 0C0#0000000000000000
(3762.0) X 0DD#FFFF000000000000
(3764.0) X 0D3#E821731EE9A5871E
(3769.0) X 0AD#FFFF000000000000
(3775.0) X 0C0#0000000000000000
(3782.0) X 0DD#0100000000000000
(3784.0) X 0D5#F103000000000EFC
(3790.0) X 0AD#FFFF000000000000
(3791.0) X 0A5#570100000000A8FE
(3804.0) X 0DD#0000000000000000
(3805.0) X 0D5#F103000000000EFC
(3811.0) X 0AD#FFFF000000000000
(3813.0) X 0A5#580100000000A8FE
(3824.0) X 0DD#FFFF000000000000
(3826.0) X 0D6#0000050005000000
(3832.0) X 0AD#FFFF000000000000
(3834.0) X 0A5#580100000000A8FE
(3846.0) X 0C0#0000000000000000
(3847.0) X 0D6#FFFF0200FEFF0000
(3850.0) X 0AE#1000492025032220
(3854.0) X 0A8#1300AFC9FEFFF4FF
(3865.0) X 0C0#0000000000000000
(3867.0) X 0DB#0000000000000000
(3874.0) X 0AD#0000000000000000
(3876.0) X 0A5#570100000000A8FE
(3886.0) X 0C0#0000000000000000
(3888.0) X 0DD#FFFF000000000000
(3890.0) X 0D3#E721831EE7A5971E
(3896.0) X 0AD#FFFF000000000000
(3899.0) X 0D0#D600D700D7001A01
(3905.0) X 0C0#0000000000000000
(3908.0) X 0DD#0000000000000000
(3915.0) X 0C0#0000000000000000
(3917.0) X 0A7#0600000012000300
(3926.0) X 0C0#0000000000000000
(3930.0) X 0DD#FFFF000000000000
(3932.0) X 0D3#E725831EE7A5971E
(3938.0) X 0AD#FFFF000000000000
(3945.0) X 0C0#0000000000000000
(3951.0) X 0DD#FFFF000000000000
(3952.0) X 0D5#F203000000000EFC
(3955.0) X 0C0#0000000000000000
(3959.0) X 0A7#0300000006000C00
(3965.0) X 0C0#0000000000000000
(3970.0) X 1BC#0000000000000000
(3974.0) X 0D3#E821731EE7A1971E
(3980.0) X 0AD#FFFF000000000000
(3986.0) X 0C0#0000000000000000
(3993.0) X 0DD#FFFF000000000000
(3994.0) X 0D5#F303000000000EFC
(3998.0) X 0DE#1000492025032220
(4002.0) X 0A7#0400000009000300
(4014.0) X 0DD#0000000000000000
(4016.0) X 0D5#F203000000000EFC
(4022.0) X 0AD#FFFF000000000000
(4024.0) X 0A5#570100000000A9FE
(4035.0) X 0DD#FFFF000000000000
(4036.0) X 0D6#FBFF0000F6FF0000
(4042.0) X 0AD#FFFF000000000000
(4044.0) X 0A5#570100000000A9FE
(4055.0) X 0AE#1000492025032220
(4057.0) X 0DC#0000000080E10B00
(4064.0) X 0AD#FFFF000000000000
(4066.0) X 0A5#570100000000A9FE
(4076.0) X 0C0#0000000000000000
(4077.0) X 0DB#0000000000000000
(4085.0) X 0AD#FFFF000000000000
(4086.0) X 0A5#580100000000A9FE
(4096.0) X 0C0#0000000000000000
(4098.0) X 0DD#FFFF000000000000
(4101.0) X 0D5#F203000000000EFC
(4106.0) X 0C0#0000000000000000
(4116.0) X 0C0#0000000000000000
(4119.0) X 0DD#FFFF000000000000
(4121.0) X 0D5#F203000000000EFC
(4126.0) X 0C0#0000000000000000
(4135.0) X 0C0#0000000000000000
(4140.0) X 0DD#FFFF000000000000
(4142.0) X 0D5#F203000000000EFC
(4146.0) X 0C0#0000000000000000
(4150.0) X 0A5#580100000000A9FE
(4156.0) X 0C0#0000000000000000
(4161.0) X 0DD#FFFF000000000000
(4166.0) X 0C0#0000000000000000
(4169.0) X 0AD#0000000000000000
(4176.0) X 0C0#0000000000000000
(4183.0) X 0DD#FFFF000000000000
(4184.0) X 0D5#F303000000000EFC
(4190.0) X 0AD#FFFF000000000000
(4192.0) X 0A5#580100000000A9FE
(4196.0) X 0F0#0000000000000000
(4201.0) X 0D0#D600D700D7001901
(4206.0) X 0C0#0000000000000000
(4211.0) X 0AD#FFFF000000000000
(4216.0) X 0C0#0000000000000000
(4225.0) X 0DD#FFFF000000000000
(4226.0) X 0D5#F203000000000EFC
(4232.0) X 0AD#FFFF000000000000
(4234.0) X 0A5#580100000000A9FE
(4245.0) X 0DD#0000000000000000
(4247.0) X 0D6#0300020008000000
(4253.0) X 0AD#0000000000000000
(4255.0) X 0A5#570100000000A9FE
(4267.0) X 0C0#0000000000000000
(4268.0) X 0D6#FEFF0500FFFF0000
(4275.0) X 0AD#FFFF000000000000
(4276.0) X 0A5#580100000000A9FE
(4286.0) X 0C0#0000000000000000
(4288.0) X 0DB#0000000000000000
(4295.0) X 0AD#FFFF000000000000
(4297.0) X 0A5#580100000000A9FE
(4302.0) X 0DE#1000492025032220
(4306.0) X 0C0#0000000000000000
(4310.0) X 0DA#0400090000004000
(4317.0) X 0C0#0000000000000000
(4319.0) X 0A4#0000000000000000
(4326.0) X 0C0#0000000000000000
(4329.0) X 0DD#FFFF000000000000
(4336.0) X 0C0#0000000000000000
(4338.0) X 0AA#0400090000004000
(4346.0) X 0C0#0000000000000000
(4350.0) X 0DD#FFFF000000000000
(4353.0) X 0D5#F303000000000EFC
(4357.0) X 0C0#0000000000000000
(4361.0) X 0A5#570100000000A9FE
(4367.0) X 0C0#0000000000000000
(4372.0) X 0DD#0100000000000000
(4376.0) X 0C0#0000000000000000
(4379.0) X 0AD#FFFF000000000000
(4386.0) X 0C0#0000000000000000
(4392.0) X 0DD#FFFF000000000000
(4395.0) X 0D5#F203000000000EFC
(4401.0) X 0AD#FFFF000000000000
(4403.0) X 0A3#E825831EE8A5A71E
(4414.0) X 0DD#FFFF000000000000
(4415.0) X 0D5#F203000000000EFC
(4421.0) X 0AD#0000000000000000
(4423.0) X 0A5#570100000000A9FE
(4434.0) X 0DD#FFFF000000000000
(4436.0) X 0D5#F203000000000EFC
(4443.0) X 0AD#0000000000000000
(4445.0) X 0A5#560100000000A9FE
(4456.0) X 0DD#0000000000000000
(4458.0) X 0D6#0200020002000000
(4461.0) X 0AE#1000492025032220
(4465.0) X 0A8#1300AFC90300E9FF
(4476.0) X 0C0#0000000000000000
(4478.0) X 0D6#0000FDFFFEFF0000
(4485.0) X 0AD#FFFF000000000000
(4487.0) X 0A3#E825831EE8A5A71E
(4497.0) X 0C0#0000000000000000
(4498.0) X 0DB#0000000000000000
(4504.0) X 0DE#1000492025032220
(4506.0) X 0AD#FFFF000000000000
(4516.0) X 0C0#0000000000000000
(4518.0) X 0DD#FFFF000000000000
(4521.0) X 0D3#E825731EE7A5871E
(4527.0) X 0C0#0000000000000000
(4537.0) X 0C0#0000000000000000
(4540.0) X 0DD#0000000000000000
(4542.0) X 0D5#F203000000000EFC
(4547.0) X 0C0#0000000000000000
(4557.0) X 0C0#0000000000000000
(4559.0) X 0AE#1000492025032220
(4562.0) X 0D6#0000020002000000
(4568.0) X 0F0#0000000000000000
(4577.0) X 0C0#0000000000000000
(4582.0) X 0DD#FFFF000000000000
(4584.0) X 0D5#F203000000000EFC
(4587.0) X 0C0#0000000000000000
(4591.0) X 0A7#0100000010001500
(4597.0) X 0C0#0000000000000000
(4603.0) X 0DD#FFFF000000000000
(4605.0) X 0D4#0000000000000000
(4611.0) X 0AD#FFFF000000000000
(4617.0) X 0C0#0000000000000000
(4624.0) X 0DD#FFFF000000000000
(4626.0) X 0D5#F203000000000EFC
(4632.0) X 0AD#0100000000000000
(4634.0) X 0A5#580100000000A9FE
(4645.0) X 0DD#FFFF000000000000
(4646.0) X 0D5#F203000000000EFC
(4653.0) X 0AD#0000000000000000
(4655.0) X 0A5#570100000000A9FE
(4662.0) X 0AE#1000492025032220
(4666.0) X 0DD#0000000000000000
(4668.0) X 0D5#F203000000000EFC
(4674.0) X 0AD#FFFF000000000000
(4687.0) X 0C0#0000000000000000
(4688.0) X 0D6#0000040000000000
(4696.0) X 0AD#FFFF000000000000
(4697.0) X 0A5#570100000000A9FE
(4707.0) X 0C0#0000000000000000
(4709.0) X 0DC#0000030059E20B00
(4712.0) X 0D1#1E019605A605F0D8
(4716.0) X 0AD#0000000000000000
(4727.0) X 0C0#0000000000000000
(4729.0) X 0DD#FFFF000000000000
(4731.0) X 0D3#E825731EE7A1871E
(4738.0) X 0C0#0000000000000000
(4747.0) X 0C0#0000000000000000
(4751.0) X 0DD#0000000000000000
(4752.0) X 0D5#F203000000000EFC
(4757.0) X 0C0#0000000000000000
(4764.0) X 0AE#1000492025032220
(4767.0) X 0C0#0000000000000000
(4771.0) X 0DD#FFFF000000000000
(4777.0) X 0C0#0000000000000000
(4780.0) X 0AC#000000007CE20B00
(4788.0) X 0C0#0000000000000000
(4793.0) X 0DD#FFFF000000000000
(4794.0) X 0D5#F303000000000EFC
(4800.0) X 0AD#FFFF000000000000
(4807.0) X 0C0#0000000000000000
(4810.0) X 0DE#1000492025032220
(4813.0) X 0DD#FFFF000000000000
(4817.0) X 0C0#0000000000000000
(4822.0) X 0AC#000002008AE20B00
(4828.0) X 0C0#0000000000000000
(4835.0) X 0DD#0100000000000000
(4836.0) X 0D5#F203000000000EFC
(4842.0) X 0AD#FFFF000000000000
(4847.0) X 0C0#0000000000000000
(4855.0) X 0DD#FFFF000000000000
(4857.0) X 0D5#F203000000000EFC
(4864.0) X 0AD#0000000000000000
(4866.0) X 0A5#590100000000A9FE
(4877.0) X 0DD#FFFF000000000000
(4879.0) X 0D6#050000000C000000
(4885.0) X 0AD#FFFF000000000000
(4886.0) X 0A5#590100000000A9FE
(4897.0) X 0C0#0000000000000000
(4899.0) X 0D6#0B000200FEFF0000
(4905.0) X 0AD#0000000000000000
(4908.0) X 0A5#580100000000A9FE
(4913.0) X 0DE#1000492025032220
(4918.0) X 0C0#0000000000000000
(4921.0) X 0D5#F203000000000EFC
(4927.0) X 0AD#FFFF000000000000
(4937.0) X 0C0#0000000000000000
(4940.0) X 0DD#FFFF000000000000
(4942.0) X 0D3#E721831EE7A5971E
(4947.0) X 0AD#FFFF000000000000
(4958.0) X 0C0#0000000000000000
(4961.0) X 0DD#FFFF000000000000
(4963.0) X 0D5#F103000000000EFC
(4968.0) X 0C0#0000000000000000
(4971.0) X 0A3#E921831EE9A5971E
(4976.0) X 1B5#0004000000260000
(4980.0) X 1BB#FFFF080499990000
(4987.0) X 0C0#0000000000000000
(4990.0) X 0AC#0000FEFFC2E20B00
(4998.0) X 0C0#0000000000000000
(5003.0) X 0DD#FFFF000000000000
(5005.0) X 0D5#F203000000000EFC
(5011.0) X 0AD#0000000000000000
(5015.0) X 0DE#1000492025032220
(5018.0) X 0F0#0000000000000000
(5024.0) X 0DD#FFFF000000000000
(5028.0) X 0C0#0000000000000000
(5032.0) X 0AC#00000000D0E20B00
(5038.0) X 0C0#0000000000000000
(5045.0) X 0DD#FFFF000000000000
(5047.0) X 0D5#F203000000000EFC
(5053.0) X 0AD#FFFF000000000000
(5058.0) X 0C0#0000000000000000
(5066.0) X 0DD#FFFF000000000000
(5068.0) X 0D5#F203000000000EFC
(5071.0) X 0AE#1000492025032220
(5075.0) X 0A8#1300AFC90200FDFF
(5087.0) X 0DD#FFFF000000000000
(5089.0) X 0D6#01000100FFFF0000
(5095.0) X 0AD#FFFF000000000000
(5097.0) X 0A5#580100000000A8FE
(5108.0) X 0C0#0000000000000000
(5110.0) X 0D6#FBFFFFFFFCFF0000
(5116.0) X 0AD#FFFF000000000000
(5117.0) X 0A5#590100000000A8FE
(5128.0) X 0C0#0000000000000000
(5130.0) X 0DB#0000000000000000
(5137.0) X 0AD#FFFF000000000000
(5139.0) X 0A5#590100000000A8FE
(5148.0) X 0C0#0000000000000000
(5150.0) X 0DD#FFFF000000000000
(5152.0) X 0D3#E721831EE7A5971E
(5158.0) X 0C0#0000000000000000
(5169.0) X 0C0#0000000000000000
(5172.0) X 0DD#FFFF000000000000
(5173.0) X 0D5#F303000000000EFC
(5178.0) X 0C0#0000000000000000
(5188.0) X 0C0#0000000000000000
(5192.0) X 0DD#FFFF000000000000
(5194.0) X 0D5#F203000000000EFC
(5198.0) X 0C0#0000000000000000
(5202.0) X 0A5#580100000000A8FE
(5209.0) X 0C0#0000000000000000
(5214.0) X 0DD#FFFF000000000000
(5218.0) X 0C0#0000000000000000
(5221.0) X 0AD#0100000000000000
(5228.0) X 0C0#0000000000000000
(5234.0) X 0DD#FFFF000000000000
(5236.0) X 0D5#F203000000000EFC
(5242.0) X 0AD#FFFF000000000000
(5244.0) X 0A5#580100000000A8FE
(5249.0) X 0F0#0000000000000000
(5256.0) X 0DD#FFFF000000000000
(5259.0) X 0C0#0000000000000000
(5264.0) X 0AD#0000000000000000
(5268.0) X 0C0#0000000000000000
(5275.0) X 0AE#1000492025032220
(5277.0) X 0DB#0000000000000000
(5284.0) X 0AD#FFFF000000000000
(5286.0) X 0A5#580100000000A8FE
(5298.0) X 0DD#0000000000000000
(5300.0) X 0D6#F6FFF9FFF6FF0000
(5306.0) X 0AD#FFFF000000000000
(5307.0) X 0A5#580100000000A8FE
(5318.0) X 0C0#0000000000000000
(5320.0) X 0D6#FFFF010007000000
(5326.0) X 0AD#FFFF000000000000
(5328.0) X 0A5#580100000000A8FE
(5339.0) X 0C0#0000000000000000
(5341.0) X 0DB#0000000000000000
(5348.0) X 0AD#FFFF000000000000
(5349.0) X 0A5#580100000000A8FE
(5359.0) X 0C0#0000000000000000
(5361.0) X 0DD#FFFF000000000000
(5363.0) X 0D3#E821831EE7A1871E
(5368.0) X 0AD#0100000000000000
(5378.0) X 0AE#1000492025032220
(5382.0) X 0DD#FFFF000000000000
(5384.0) X 0D5#F203000000000EFC
(5389.0) X 0C0#0000000000000000
(5392.0) X 0A5#570100000000A8FE
(5399.0) X 0C0#0000000000000000
(5403.0) X 0DD#0100000000000000
(5408.0) X 0C0#0000000000000000
(5410.0) X 0AD#FFFF000000000000
(5419.0) X 0C0#0000000000000000
(5424.0) X 0DD#0100000000000000
(5426.0) X 0D7#08000000FBFF0700
(5429.0) X 0C0#0000000000000000
(5434.0) X 0A5#570100000000A8FE
(5439.0) X 0C0#0000000000000000
(5445.0) X 0DD#FFFF000000000000
(5449.0) X 0C0#0000000000000000
(5453.0) X 0AD#0000000000000000
(5458.0) X 0C0#0000000000000000
(5466.0) X 0DD#FFFF000000000000
(5468.0) X 0D5#F203000000000EFC
(5474.0) X 0AD#FFFF000000000000
(5476.0) X 0A5#570100000000A9FE
(5480.0) X 0A9#9600FB00FE019E04
(5487.0) X 0DD#FFFF000000000000
(5489.0) X 0D3#E721831EE8A5971E
(5495.0) X 0AD#0000000000000000
(5499.0) X 0C0#0000000000000000
(5509.0) X 0DD#0000000000000000
(5510.0) X 0D6#0700020007000000
(5516.0) X 0AD#FFFF000000000000
(5518.0) X 0A5#580100000000A9FE
(5526.0) X 0DE#1000492025032220
(5529.0) X 0C0#0000000000000000
(5531.0) X 0D3#E721731EE7A1871E
(5537.0) X 0AD#FFFF000000000000
(5549.0) X 0C0#0000000000000000
(5551.0) X 0DB#0000000000000000
(5558.0) X 0AD#0000000000000000
(5560.0) X 0A5#580100000000A9FE
(5569.0) X 0C0#0000000000000000
(5571.0) X 0DD#0000000000000000
(5573.0) X 0D3#E725831EE8A5971E
(5579.0) X 0C0#0000000000000000
(5582.0) X 0A2#F0D8F0D8E4000000
(5590.0) X 0C0#0000000000000000
(5593.0) X 0DD#FFFF000000000000
(5600.0) X 0AD#FFFF000000000000
(5609.0) X 0C0#0000000000000000
(5613.0) X 0DD#FFFF000000000000
(5615.0) X 0D5#F203000000000EFC
(5619.0) X 0C0#0000000000000000
(5623.0) X 0A3#E825831EE8A5A71E
(5628.0) X 0DE#1000492025032220
(5635.0) X 0DD#FFFF000000000000
(5640.0) X 0C0#0000000000000000
(5643.0) X 0AD#FFFF000000000000
(5649.0) X 0C0#0000000000000000
(5655.0) X 0DD#FFFF000000000000
(5657.0) X 0D5#F203000000000EFC
(5663.0) X 0AD#FFFF000000000000
(5665.0) X 0A3#E825831EE9A5A71E
(5677.0) X 0DD#FFFF000000000000
(5679.0) X 0D6#FCFFFAFFFAFF0000
(5685.0) X 0AD#0000000000000000
(5686.0) X 0A7#070000000D000300
(5697.0) X 0DD#FFFF000000000000
(5699.0) X 0D5#F203000000000EFC
(5705.0) X 0AD#0000000000000000
(5707.0) X 0A5#570100000000A9FE
(5719.0) X 0DD#0000000000000000
(5721.0) X 0D6#0300050001000000
(5727.0) X 0AD#FFFF000000000000
(5728.0) X 0A5#580100000000A9FE
(5739.0) X 0C0#0000000000000000
(5741.0) X 0D6#0300FCFF08000000
(5747.0) X 0AD#FFFF000000000000
(5749.0) X 0A5#580100000000A9FE
(5760.0) X 0C0#0000000000000000
(5762.0) X 0DB#0000000000000000
(5769.0) X 0AD#0000000000000000
(5771.0) X 0A5#570100000000A9FE
(5780.0) X 0C0#0000000000000000
(5782.0) X 0DD#0000000000000000
(5784.0) X 0D3#E821831EE8A5A71E
(5789.0) X 0C0#0000000000000000
(5799.0) X 0C0#0000000000000000
(5803.0) X 0DD#FFFF000000000000
(5805.0) X 0D5#F303000000000EFC
(5810.0) X 0C0#0000000000000000
(5820.0) X 0C0#0000000000000000
(5824.0) X 0DD#0000000000000000
(5825.0) X 0D5#F203000000000EFC
(5830.0) X 0C0#0000000000000000
(5833.0) X 0A5#580100000000A9FE
(5839.0) X 0C0#0000000000000000
(5844.0) X 0DD#0000000000000000
(5850.0) X 0C0#0000000000000000
(5853.0) X 0AD#FFFF000000000000
(5860.0) X 0C0#0000000000000000
(5866.0) X 0DD#FFFF000000000000
(5868.0) X 0D5#F203000000000EFC
(5874.0) X 0AD#0000000000000000
(5875.0) X 0A5#580100000000A9FE
(5880.0) X 0F0#0000000000000000
(5886.0) X 0DD#0000000000000000
(5890.0) X 0A2#F0D8F0D8E8000000
(5895.0) X 0AD#0000000000000000
(5900.0) X 0C0#0000000000000000
(5908.0) X 0DD#FFFF000000000000
(5910.0) X 0D5#F203000000000EFC
(5916.0) X 0AD#0000000000000000
(5917.0) X 0A5#590100000000A8FE
(5929.0) X 0DD#FFFF000000000000
(5931.0) X 0D6#FBFFFBFFFAFF0000
(5935.0) X 0DE#1000492025032220
(5938.0) X 0A8#1300AFC9FCFF0000
(5950.0) X 0C0#0000000000000000
(5952.0) X 0D6#0300FCFF0D000000
(5958.0) X 0AD#FFFF000000000000
(5959.0) X 0A5#590100000000A8FE
(5970.0) X 0C0#0000000000000000
(5971.0) X 0DB#0000000000000000
(5975.0) X 1B6#0000000000000000
(5979.0) X 0AD#FFFF000000000000
(5990.0) X 0C0#0000000000000000
(5992.0) X 0A1#150103081608F0D8
(5994.0) X 0D3#E725731EE7A1871E
(6000.0) X 0AD#FFFF000000000000
(6010.0) X 0C0#0000000000000000
(6013.0) X 0DD#0000000000000000
(6016.0) X 0D5#F303000000000EFC
(6021.0) X 0C0#0000000000000000
(6030.0) X 0C0#0000000000000000
(6034.0) X 0DD#0100000000000000
(6036.0) X 0D5#F203000000000EFC
(6040.0) X 0C0#0000000000000000
(6044.0) X 0A6#FBFF0300ECFF0000
(6050.0) X 0C0#0000000000000000
(6055.0) X 0DD#FFFF000000000000
(6061.0) X 0C0#0000000000000000
(6064.0) X 0AD#FFFF000000000000
(6070.0) X 0C0#0000000000000000
(6076.0) X 0DD#0000000000000000
(6078.0) X 0D5#F203000000000EFC
(6084.0) X 0AD#0000000000000000
(6086.0) X 0A5#580100000000A8FE
(6090.0) X 0F0#0000000000000000
(6097.0) X 0DD#FFFF000000000000
(6100.0) X 0C0#0000000000000000
(6106.0) X 0AD#0000000000000000
(6111.0) X 0C0#0000000000000000
(6119.0) X 0DD#0000000000000000
(6120.0) X 0D5#F203000000000EFC
(6126.0) X 0AD#FFFF000000000000
(6128.0) X 0A5#580100000000A8FE
(6139.0) X 0DD#FFFF000000000000
(6141.0) X 0D8#1300D3E40000FDFF
(6148.0) X 0AD#FFFF000000000000
(6150.0) X 0A5#580100000000A8FE
(6162.0) X 0DA#0400090000004000
(6163.0) X 0F0#0000000000000000
(6168.0) X 0AD#FFFF000000000000
(6180.0) X 0C0#0000000000000000
(6182.0) X 0DB#0000000000000000
(6190.0) X 0AD#FFFF000000000000
(6192.0) X 0A5#570100000000A8FE
(6196.0) X 0AE#1000492025032220
(6201.0) X 0C0#0000000000000000
(6204.0) X 0DA#0400090000004000
(6210.0) X 0C0#0000000000000000
(6213.0) X 0A4#0000000000000000
(6220.0) X 0C0#0000000000000000
(6223.0) X 0DD#FFFF000000000000
(6231.0) X 0C0#0000000000000000
(6233.0) X 0AA#0400090000004000
(6241.0) X 0F0#0000000000000000
(6245.0) X 0DD#0000000000000000
(6251.0) X 0C0#0000000000000000
(6253.0) X 0AC#0000020066E40B00
(6260.0) X 0C0#0000000000000000
(6265.0) X 0DD#FFFF000000000000
(6267.0) X 0D5#F203000000000EFC
(6274.0) X 0AD#0000000000000000
(6281.0) X 0C0#0000000000000000
(6287.0) X 0DD#FFFF000000000000
(6289.0) X 0D5#F203000000000EFC
(6295.0) X 0AD#0000000000000000
(6296.0) X 0A5#580100000000A8FE
(6301.0) X 0C0#0000000000000000
(6308.0) X 0DD#0000000000000000
(6309.0) X 0D4#0000000000000000
(6316.0) X 0AD#FFFF000000000000
(6321.0) X 0C0#0000000000000000
(6329.0) X 0DD#FFFF000000000000
(6331.0) X 0D5#F203000000000EFC
(6337.0) X 0AD#FFFF000000000000
(6338.0) X 0A5#570100000000A8FE
(6344.0) X 0DE#1000492025032220
(6350.0) X 0DD#0100000000000000
(6352.0) X 0D5#F103000000000EFC
(6358.0) X 0AD#FFFF000000000000
(6371.0) X 0C0#0000000000000000
(6373.0) X 0D6#0600FEFFF6FF0000
(6379.0) X 0AD#FFFF000000000000
(6381.0) X 0A5#580100000000A8FE
(6391.0) X 0C0#0000000000000000
(6392.0) X 0DB#0000000000000000
(6400.0) X 0AD#FFFF000000000000
(6402.0) X 0A7#0700000009000100
(6411.0) X 0C0#0000000000000000
(6413.0) X 0DD#FFFF000000000000
(6415.0) X 0D3#E821831EE6A1971E
(6421.0) X 0AD#FFFF000000000000
(6431.0) X 0C0#0000000000000000
(6434.0) X 0DD#FFFF000000000000
(6436.0) X 0D5#F203000000000EFC
(6441.0) X 0C0#0000000000000000
(6447.0) X 0DE#1000492025032220
(6451.0) X 0C0#0000000000000000
(6455.0) X 0DD#FFFF000000000000
(6461.0) X 0C0#0000000000000000
(6463.0) X 0AC#0000FBFFACE40B00
(6471.0) X 0C0#0000000000000000
(6476.0) X 0DD#FFFF000000000000
(6478.0) X 0D5#F203000000000EFC
(6484.0) X 0AD#FFFF000000000000
(6492.0) X 0C0#0000000000000000
(6498.0) X 0DD#FFFF000000000000
(6499.0) X 0D5#F203000000000EFC
(6502.0) X 0AE#1000492025032220
(6506.0) X 0A8#1300AFC9FBFF0E00
(6511.0) X 0C0#0000000000000000
(6518.0) X 0DD#FFFF000000000000
(6520.0) X 0D4#0000000000000000
(6526.0) X 0AD#FFFF000000000000
(6532.0) X 0C0#0000000000000000
(6540.0) X 0DD#FFFF000000000000
(6541.0) X 0D5#F203000000000EFC
(6547.0) X 0AD#FFFF000000000000
(6549.0) X 0A5#580100000000A9FE
(6560.0) X 0DD#0100000000000000
(6562.0) X 0D6#0100FCFFFBFF0000
(6568.0) X 0AD#FFFF000000000000
(6571.0) X 0A5#580100000000A9FE
(6582.0) X 0C0#0000000000000000
(6583.0) X 0D6#FBFFF3FFF6FF0000
(6589.0) X 0AD#FFFF000000000000
(6591.0) X 0A5#580100000000A9FE
(6601.0) X 0C0#0000000000000000
(6603.0) X 0DB#0000000000000000
(6605.0) X 0D4#0000000000000000
(6610.0) X 0AD#FFFF000000000000
(6622.0) X 0C0#0000000000000000
(6624.0) X 0DD#0000000000000000
(6626.0) X 0D3#E721731EE7A5871E
(6632.0) X 0C0#0000000000000000
(6641.0) X 0C0#0000000000000000
(6644.0) X 0DD#FFFF000000000000
(6646.0) X 0D5#F203000000000EFC
(6650.0) X 0DE#1000492025032220
(6662.0) X 0C0#0000000000000000
(6666.0) X 0DD#FFFF000000000000
(6668.0) X 0D5#F203000000000EFC
(6672.0) X 0C0#0000000000000000
(6675.0) X 0A5#580100000000A9FE
(6681.0) X 0C0#0000000000000000
(6687.0) X 0DD#0000000000000000
(6691.0) X 0C0#0000000000000000
(6694.0) X 0AD#FFFF000000000000
(6702.0) X 0C0#0000000000000000
(6707.0) X 0AE#1000492025032220
(6712.0) X 0C0#0000000000000000
(6716.0) X 0AC#0000020000E50B00
(6722.0) X 0C0#0000000000000000
(6729.0) X 0DD#FFFF000000000000
(6730.0) X 0D5#F203000000000EFC
(6736.0) X 0AD#FFFF000000000000
(6742.0) X 0C0#0000000000000000
(6750.0) X 0DD#FFFF000000000000
(6752.0) X 0D5#F203000000000EFC
(6758.0) X 0AD#0000000000000000
(6760.0) X 0A5#580100000000A9FE
(6771.0) X 0DD#0000000000000000
(6772.0) X 0D6#0200040001000000
(6778.0) X 0AD#FFFF000000000000
(6780.0) X 0A5#580100000000A9FE
(6792.0) X 0C0#0000000000000000
(6794.0) X 0D6#FEFFF9FFFAFF0000
(6800.0) X 0AD#FFFF000000000000
(6802.0) X 0A5#580100000000A8FE
(6809.0) X 0AE#1000492025032220
(6812.0) X 0C0#0000000000000000
(6815.0) X 0D5#F303000000000EFC
(6821.0) X 0AD#FFFF000000000000
(6832.0) X 0C0#0000000000000000
(6834.0) X 0DD#FFFF000000000000
(6837.0) X 0D3#E81D731EE7A1871E
(6842.0) X 0AD#FFFF000000000000
(6852.0) X 0C0#0000000000000000
(6855.0) X 0DD#0000000000000000
(6857.0) X 0D7#0900000000000000
(6862.0) X 0C0#0000000000000000
(6872.0) X 0C0#0000000000000000
(6877.0) X 0DD#FFFF000000000000
(6878.0) X 0D5#F303000000000EFC
(6882.0) X 0C0#0000000000000000
(6886.0) X 0A5#580100000000A8FE
(6892.0) X 0C0#0000000000000000
(6897.0) X 0DD#FFFF000000000000
(6902.0) X 0C0#0000000000000000
(6905.0) X 0AD#FFFF000000000000
(6912.0) X 0AE#1000492025032220
(6919.0) X 0DD#FFFF000000000000
(6920.0) X 0D5#F203000000000EFC
(6926.0) X 0AD#FFFF000000000000
(6928.0) X 0A5#580100000000A8FE
(6932.0) X 0F0#0000000000000000
(6939.0) X 0DD#0000000000000000
(6942.0) X 0C0#0000000000000000
(6947.0) X 0AD#FFFF000000000000
(6952.0) X 0C0#0000000000000000
(6958.0) X 0DE#1000492025032220
(6961.0) X 0DC#0000FDFF46E50B00
(6968.0) X 0AD#FFFF000000000000
(6970.0) X 0A5#580100000000A8FE
(6976.0) X 1B5#0004000000260000
(6980.0) X 1BB#FFFF080499990000
(6984.0) X 0D3#E821831EE7A1871E
(6989.0) X 0AD#0000000000000000
(7003.0) X 0C0#0000000000000000
(7004.0) X 0D6#0000FFFF00000000
(7011.0) X 0AD#0000000000000000
(7012.0) X 0A5#570100000000A8FE
(7022.0) X 0C0#0000000000000000
(7024.0) X 0DB#0000000000000000
(7031.0) X 0AD#0000000000000000
(7033.0) X 0A5#580100000000A8FE
(7043.0) X 0C0#0000000000000000
(7045.0) X 0DD#FFFF000000000000
(7047.0) X 0D3#E821831EE7A1971E
(7053.0) X 0C0#0000000000000000
(7060.0) X 0DE#1000492025032220
(7062.0) X 0C0#0000000000000000
(7066.0) X 0DD#FFFF000000000000
(7072.0) X 0C0#0000000000000000
(7074.0) X 0A7#0900000004000100
(7083.0) X 0C0#0000000000000000
(7087.0) X 0DD#FFFF000000000000
(7089.0) X 0D3#E825731EE7A1971E
(7095.0) X 0AD#0000000000000000
(7103.0) X 0C0#0000000000000000
(7108.0) X 0DD#0000000000000000
(7109.0) X 0D5#F103000000000EFC
(7112.0) X 0C0#0000000000000000
(7117.0) X 0A9#9600FB00FD019F04
(7122.0) X 0C0#0000000000000000
(7129.0) X 0DD#FFFF000000000000
(7131.0) X 0D3#E721731EE8A1871E
(7137.0) X 0AD#FFFF000000000000
(7143.0) X 0C0#0000000000000000
(7150.0) X 0DD#FFFF000000000000
(7151.0) X 0D5#F303000000000EFC
(7157.0) X 0AD#0100000000000000
(7159.0) X 0A5#580100000000A8FE
(7171.0) X 0DD#0000000000000000
(7173.0) X 0D5#F203000000000EFC
(7179.0) X 0AD#FFFF000000000000
(7181.0) X 0A5#580100000000A8FE
(7192.0) X 0DD#0000000000000000
(7194.0) X 0D6#FEFFFEFF0A000000
(7200.0) X 0AD#0000000000000000
(7201.0) X 0A5#580100000000A8FE
(7213.0) X 0C0#0000000000000000
(7215.0) X 0D6#FBFFFBFFF9FF0000
(7218.0) X 0AE#1000492025032220
(7222.0) X 0A8#1300AFC90200FFFF
(7233.0) X 0C0#0000000000000000
(7234.0) X 0DB#0000000000000000
(7243.0) X 0A8#1300AFC90100F5FF
(7252.0) X 0C0#0000000000000000
(7255.0) X 0DD#0000000000000000
(7258.0) X 0D3#E821831EE7A5971E
(7263.0) X 0C0#0000000000000000
(7267.0) X 0D0#D600D800D7001A01
(7273.0) X 0C0#0000000000000000
(7276.0) X 0DD#FFFF000000000000
(7283.0) X 0C0#0000000000000000
(7285.0) X 0A7#0500000010000A00
(7293.0) X 0C0#0000000000000000
(7298.0) X 0DD#FFFF000000000000
(7300.0) X 0D3#E721831EE8A5871E
(7305.0) X 0AD#0000000000000000
(7313.0) X 0C0#0000000000000000
(7318.0) X 0DD#0000000000000000
(7320.0) X 0D5#F203000000000EFC
(7323.0) X 0C0#0000000000000000
(7327.0) X 0A7#0500000009000300
(7333.0) X 0C0#0000000000000000
(7340.0) X 0DD#0100000000000000
(7342.0) X 0D3#E821831EE7A1971E
(7347.0) X 0AD#FFFF000000000000
(7353.0) X 0C0#0000000000000000
(7360.0) X 0DD#FFFF000000000000
(7362.0) X 0D5#F303000000000EFC
(7366.0) X 0DE#1000492025032220
(7369.0) X 0A7#0B0000000D000800
(7382.0) X 0DD#0000000000000000
(7383.0) X 0D5#F103000000000EFC
(7389.0) X 0AD#FFFF000000000000
(7391.0) X 0A5#580100000000A9FE
(7402.0) X 0DD#0000000000000000
(7404.0) X 0D6#0200030003000000
(7410.0) X 0AD#FFFF000000000000
(7412.0) X 0A5#570100000000A9FE
(7422.0) X 0AE#1000492025032220
(7424.0) X 0DC#0000FCFFE0E50B00
(7432.0) X 0AD#FFFF000000000000
(7433.0) X 0A5#570100000000A9FE
(7443.0) X 0C0#0000000000000000
(7445.0) X 0DB#0000000000000000
(7452.0) X 0AD#FFFF000000000000
(7454.0) X 0A5#580100000000A9FE
(7463.0) X 0C0#0000000000000000
(7465.0) X 0DD#FFFF000000000000
(7468.0) X 0D3#E825731EE8A5971E
(7474.0) X 0AD#FFFF000000000000
(7484.0) X 0C0#0000000000000000
(7487.0) X 0DD#FFFF000000000000
(7488.0) X 0D5#F203000000000EFC
(7493.0) X 0C0#0000000000000000
(7503.0) X 0C0#0000000000000000
(7507.0) X 0DD#FFFF000000000000
(7510.0) X 0D5#F203000000000EFC
(7514.0) X 0C0#0000000000000000
(7517.0) X 0A5#580100000000A9FE
(7524.0) X 0C0#0000000000000000
(7529.0) X 0DD#0100000000000000
(7533.0) X 0C0#0000000000000000
(7536.0) X 0AD#0000000000000000
(7543.0) X 0C0#0000000000000000
(7549.0) X 0DD#FFFF000000000000
(7552.0) X 0D5#F203000000000EFC
(7558.0) X 0AD#0000000000000000
(7560.0) X 0A5#570100000000A9FE
(7564.0) X 0F0#0000000000000000
(7571.0) X 0DD#FFFF000000000000
(7573.0) X 0D4#0000000000000000
(7579.0) X 0AD#0000000000000000
(7583.0) X 0C0#0000000000000000
(7591.0) X 0DD#0000000000000000
(7593.0) X 0D5#F203000000000EFC
(7600.0) X 0AD#FFFF000000000000
(7602.0) X 0A5#570100000000A9FE
(7613.0) X 0DD#0100000000000000
(7615.0) X 0D6#0000FFFFFCFF0000
(7621.0) X 0AD#FFFF000000000000
(7622.0) X 0A5#570100000000A9FE
(7626.0) X 0AE#1000492025032220
(7633.0) X 0C0#0000000000000000
(7635.0) X 0D4#0000000000000000
(7642.0) X 0AD#FFFF000000000000
(7654.0) X 0C0#0000000000000000
(7656.0) X 0DB#0000000000000000
(7663.0) X 0AD#FFFF000000000000
(7664.0) X 0A5#570100000000A9FE
(7673.0) X 0DE#1000492025032220
(7676.0) X 0DD#0100000000000000
(7677.0) X 0D5#F103000000000EFC
(7684.0) X 0C0#0000000000000000
(7687.0) X 0F0#0000000000000000
(7694.0) X 0C0#0000000000000000
(7697.0) X 0DD#FFFF000000000000
(7704.0) X 0C0#0000000000000000
(7706.0) X 0AA#0400090000004000
(7714.0) X 0C0#0000000000000000
(7718.0) X 0DD#FFFF000000000000
(7719.0) X 0D5#F203000000000EFC
(7724.0) X 0C0#0000000000000000
(7729.0) X 0AE#1000492025032220
(7734.0) X 0C0#0000000000000000
(7739.0) X 0DD#0000000000000000
(7744.0) X 0C0#0000000000000000
(7747.0) X 0AB#0000000000000000
(7754.0) X 0C0#0000000000000000
(7760.0) X 0DD#FFFF000000000000
(7761.0) X 0D5#F303000000000EFC
(7768.0) X 0AD#FFFF000000000000
(7774.0) X 0C0#0000000000000000
(7776.0) X 0D1#1D019605A605F0D8
(7781.0) X 0DD#0000000000000000
(7789.0) X 0AD#FFFF000000000000
(7791.0) X 0A5#590100000000A8FE
(7794.0) X 0C0#0000000000000000
(7802.0) X 0DD#0000000000000000
(7804.0) X 0D5#F203000000000EFC
(7812.0) X 0A6#F6FFFEFFFEFF0000
(7823.0) X 0DD#FFFF000000000000
(7825.0) X 0D6#00000000FBFF0000
(7831.0) X 0AD#0000000000000000
(7833.0) X 0A7#0500000012000500
(7844.0) X 0C0#0000000000000000
(7846.0) X 0D6#FBFFF7FFF2FF0000
(7853.0) X 0AD#FFFF000000000000
(7854.0) X 0A5#580100000000A8FE
(7864.0) X 0C0#0000000000000000
(7866.0) X 0DB#0000000000000000
(7873.0) X 0AD#0000000000000000
(7875.0) X 0A5#580100000000A8FE
(7878.0) X 0D2#F0D8F0D8E0000000
(7884.0) X 0C0#0000000000000000
(7887.0) X 0DA#0400090000004000
(7895.0) X 0AD#FFFF000000000000
(7897.0) X 0A3#E825831EE9A5971E
(7905.0) X 0C0#0000000000000000
(7908.0) X 0DD#0000000000000000
(7914.0) X 0C0#0000000000000000
(7916.0) X 0AA#0400090000004000
(7924.0) X 0C0#0000000000000000
(7928.0) X 0DD#FFFF000000000000
(7930.0) X 0D5#F203000000000EFC
(7933.0) X 0A2#F0D8F0D8E6000000
(7939.0) X 0A3#E825731EE8A5971E
(7945.0) X 0C0#0000000000000000
(7950.0) X 0DD#0000000000000000
(7955.0) X 0C0#0000000000000000
(7957.0) X 0AD#FFFF000000000000
(7964.0) X 0C0#0000000000000000
(7970.0) X 0DD#FFFF000000000000
(7972.0) X 0D5#F203000000000EFC
(7976.0) X 1B8#0000000000000000
(7981.0) X 0A3#E825831EE8A5971E
(7992.0) X 0DD#0000000000000000
(7994.0) X 0D5#F203000000000EFC
(8000.0) X 0AD#FFFF000000000000
(8001.0) X 0A5#580100000000A8FE
(8012.0) X 0DD#0100000000000000
(8014.0) X 0D5#F303000000000EFC
(8020.0) X 0AD#FFFF000000000000
(8023.0) X 0A5#570100000000A8FE
(8034.0) X 0DD#0000000000000000
(8036.0) X 0D6#FEFFF8FFFBFF0000
(8042.0) X 0AD#FFFF000000000000
(8043.0) X 0A5#580100000000A8FE
(8054.0) X 0C0#0000000000000000
(8056.0) X 0D6#FEFFFEFF02000000
(8062.0) X 0AD#FFFF000000000000
(8065.0) X 0A5#580100000000A8FE
(8075.0) X 0C0#0000000000000000
(8077.0) X 0DB#0000000000000000
(8082.0) X 0DE#1000492025032220
(8084.0) X 0AD#FFFF000000000000
(8095.0) X 0C0#0000000000000000
(8097.0) X 0DD#FFFF000000000000
(8099.0) X 0D3#E821831EE7A5871E
(8104.0) X 0C0#0000000000000000
(8115.0) X 0C0#0000000000000000
(8118.0) X 0DD#0000000000000000
(8120.0) X 0D5#F203000000000EFC
(8125.0) X 0C0#0000000000000000
(8135.0) X 0C0#0000000000000000
(8138.0) X 0AE#1000492025032220
(8139.0) X 0DB#0000000000000000
(8144.0) X 0C0#0000000000000000
(8148.0) X 0A5#580100000000A8FE
(8155.0) X 0C0#0000000000000000
(8160.0) X 0DD#FFFF000000000000
(8165.0) X 0C0#0000000000000000
(8168.0) X 0AD#FFFF000000000000
(8175.0) X 0C0#0000000000000000
(8181.0) X 0DD#FFFF000000000000
(8183.0) X 0D5#F203000000000EFC
(8189.0) X 0AD#FFFF000000000000
(8190.0) X 0A5#570100000000A9FE
(8196.0) X 0F0#0000000000000000
(8202.0) X 0DD#0000000000000000
(8205.0) X 0C0#0000000000000000
(8210.0) X 0AD#FFFF000000000000
(8215.0) X 0C0#0000000000000000
(8223.0) X 0DD#FFFF000000000000
(8225.0) X 0D5#F203000000000EFC
(8231.0) X 0AD#0000000000000000
(8232.0) X 0A5#570100000000A9FE
(8240.0) X 0AE#1000492025032220
(8245.0) X 0DD#FFFF000000000000
(8247.0) X 0D3#E721831EE8A5971E
(8252.0) X 0AD#FFFF000000000000
(8265.0) X 0C0#0000000000000000
(8267.0) X 0D6#060000000D000000
(8273.0) X 0AD#0000000000000000
(8274.0) X 0A5#580100000000A9FE
(8286.0) X 0C0#0000000000000000
(8287.0) X 0DC#00000300FFE60B00
(8290.0) X 0D1#1D019605A605F0D8
(8294.0) X 0AD#FFFF000000000000
(8305.0) X 0C0#0000000000000000
(8307.0) X 0DD#0000000000000000
(8309.0) X 0D3#E821831EE7A1971E
(8315.0) X 0C0#0000000000000000
(8326.0) X 0C0#0000000000000000
(8329.0) X 0DD#FFFF000000000000
(8330.0) X 0D5#F203000000000EFC
(8335.0) X 0C0#0000000000000000
(8342.0) X 0AE#1000492025032220
(8345.0) X 0C0#0000000000000000
(8349.0) X 0DD#FFFF000000000000
(8355.0) X 0C0#0000000000000000
(8357.0) X 0AC#0000010022E70B00
(8366.0) X 0C0#0000000000000000
(8371.0) X 0DD#FFFF000000000000
(8373.0) X 0D5#F203000000000EFC
(8379.0) X 0AD#FFFF000000000000
(8385.0) X 0C0#0000000000000000
(8388.0) X 0DE#1000492025032220
(8391.0) X 0DD#FFFF000000000000
(8395.0) X 0C0#0000000000000000
(8399.0) X 0AC#0000020030E70B00
(8406.0) X 0C0#0000000000000000
(8413.0) X 0DD#FFFF000000000000
(8415.0) X 0D5#F203000000000EFC
(8421.0) X 0AD#FFFF000000000000
(8426.0) X 0C0#0000000000000000
(8433.0) X 0DD#FFFF000000000000
(8435.0) X 0D5#F203000000000EFC
(8441.0) X 0AD#0000000000000000
(8443.0) X 0A5#580100000000A8FE
(8455.0) X 0DD#FFFF000000000000
(8457.0) X 0D6#FFFFFDFF04000000
(8463.0) X 0AD#0000000000000000
(8464.0) X 0A5#580100000000A8FE
(8475.0) X 0C0#0000000000000000
(8477.0) X 0D6#FFFF0500FFFF0000
(8483.0) X 0AD#FFFF000000000000
(8485.0) X 0A5#580100000000A8FE
(8491.0) X 0DE#1000492025032220
(8496.0) X 0C0#0000000000000000
(8499.0) X 0D4#0000000000000000
(8505.0) X 0AD#0000000000000000
(8516.0) X 0C0#0000000000000000
(8518.0) X 0DD#0000000000000000
(8520.0) X 0D3#E821731EE7A1971E
(8525.0) X 0AD#FFFF000000000000
(8536.0) X 0C0#0000000000000000
(8539.0) X 0DD#0000000000000000
(8541.0) X 0D5#F203000000000EFC
(8546.0) X 0C0#0000000000000000
(8550.0) X 0A3#E825831EE9A5B71E
(8556.0) X 0C0#0000000000000000
(8560.0) X 0DD#FFFF000000000000
(8566.0) X 0C0#0000000000000000
(8568.0) X 0AC#0000040068E70B00
(8576.0) X 0C0#0000000000000000
(8581.0) X 0DD#FFFF000000000000
(8583.0) X 0D5#F203000000000EFC
(8589.0) X 0AD#0000000000000000
(8593.0) X 0DE#1000492025032220
(8596.0) X 0F0#0000000000000000
(8602.0) X 0DD#FFFF000000000000
(8606.0) X 0C0#0000000000000000
(8610.0) X 0AC#0000000076E70B00
(8616.0) X 0C0#0000000000000000
(8624.0) X 0DD#0000000000000000
(8625.0) X 0D5#F103000000000EFC
(8631.0) X 0AD#0000000000000000
(8636.0) X 0C0#0000000000000000
(8644.0) X 0DD#FFFF000000000000
(8646.0) X 0D5#F203000000000EFC
(8649.0) X 0AE#1000492025032220
(8653.0) X 0A8#1300AFC90100F6FF
(8666.0) X 0DD#0000000000000000
(8667.0) X 0D6#00000A00F9FF0000
(8673.0) X 0AD#0100000000000000
(8675.0) X 0A5#590100000000A8FE
(8686.0) X 0C0#0000000000000000
(8688.0) X 0D6#F5FFF6FFF9FF0000
(8694.0) X 0AD#FFFF000000000000
(8696.0) X 0A5#590100000000A8FE
(8707.0) X 0C0#0000000000000000
(8708.0) X 0DB#0000000000000000
(8715.0) X 0AD#0000000000000000
(8717.0) X 0A5#590100000000A8FE
(8726.0) X 0C0#0000000000000000
(8728.0) X 0DD#0000000000000000
(8730.0) X 0D3#E821831EE7A1871E
(8736.0) X 0C0#0000000000000000
(8747.0) X 0C0#0000000000000000
(8750.0) X 0DD#FFFF000000000000
(8752.0) X 0D5#F203000000000EFC
(8757.0) X 0C0#0000000000000000
(8766.0) X 0C0#0000000000000000
(8770.0) X 0DD#0000000000000000
(8772.0) X 0D5#F303000000000EFC
(8776.0) X 0C0#0000000000000000
(8780.0) X 0A5#590100000000A8FE
(8786.0) X 0C0#0000000000000000
(8792.0) X 0DD#FFFF000000000000
(8797.0) X 0C0#0000000000000000
(8800.0) X 0AD#0000000000000000
(8806.0) X 0C0#0000000000000000
(8812.0) X 0DD#0000000000000000
(8814.0) X 0D5#F203000000000EFC
(8820.0) X 0AD#FFFF000000000000
(8822.0) X 0A5#590100000000A8FE
(8826.0) X 0F0#0000000000000000
(8834.0) X 0DD#FFFF000000000000
(8837.0) X 0C0#0000000000000000
(8842.0) X 0AD#0000000000000000
(8847.0) X 0C0#0000000000000000
(8853.0) X 0AE#1000492025032220
(8855.0) X 0DB#0000000000000000
(8862.0) X 0AD#FFFF000000000000
(8864.0) X 0A5#590100000000A8FE
(8876.0) X 0DD#FFFF000000000000
(8878.0) X 0D6#FEFFFFFFFDFF0000
(8884.0) X 0AD#FFFF000000000000
(8886.0) X 0A5#590100000000A7FE
(8897.0) X 0C0#0000000000000000
(8898.0) X 0D6#0000000002000000
(8904.0) X 0AD#0000000000000000
(8906.0) X 0A5#590100000000A7FE
(8916.0) X 0C0#0000000000000000
(8919.0) X 0DB#0000000000000000
(8926.0) X 0AD#FFFF000000000000
(8928.0) X 0A5#590100000000A7FE
(8937.0) X 0C0#0000000000000000
(8939.0) X 0DD#0100000000000000
(8941.0) X 0D3#E821731EE7A1871E
(8946.0) X 0AD#0000000000000000
(8955.0) X 0AE#1000492025032220
(8960.0) X 0DD#FFFF000000000000
(8962.0) X 0D5#F203000000000EFC
(8967.0) X 0C0#0000000000000000
(8969.0) X 0A6#0600020009000000
(8975.0) X 1B5#0004000000260000
(8979.0) X 1BB#FFFF080499990000
(8987.0) X 0C0#0000000000000000
(8989.0) X 0AD#0000000000000000
(8996.0) X 0C0#0000000000000000
(9001.0) X 0DD#0100000000000000
(9004.0) X 0D7#0C00000007000500
(9007.0) X 0C0#0000000000000000
(9012.0) X 0A6#FEFF000002000000
(9017.0) X 0C0#0000000000000000
(9023.0) X 0DD#FFFF000000000000
(9027.0) X 0C0#0000000000000000
(9031.0) X 0AD#0000000000000000
(9037.0) X 0C0#0000000000000000
(9044.0) X 0DD#0000000000000000
(9046.0) X 0D5#F203000000000EFC
(9052.0) X 0AD#0000000000000000
(9054.0) X 0A5#580100000000A8FE
(9058.0) X 0A9#9600FB00FC019E04
(9065.0) X 0DD#0000000000000000
(9067.0) X 0D3#E821831EE7A9971E
(9073.0) X 0AD#0000000000000000
(9077.0) X 0C0#0000000000000000
(9086.0) X 0DD#0000000000000000
(9088.0) X 0D6#FEFF000005000000
(9094.0) X 0AD#FFFF000000000000
(9096.0) X 0A5#580100000000A8FE
(9104.0) X 0DE#1000492025032220
(9107.0) X 0C0#0000000000000000
(9110.0) X 0D3#E821731EE7A1871E
(9115.0) X 0AD#FFFF000000000000
(9127.0) X 0C0#0000000000000000
(9128.0) X 0DB#0000000000000000
(9137.0) X 0AD#FFFF000000000000
(9138.0) X 0A5#580100000000A8FE
(9147.0) X 0C0#0000000000000000
(9149.0) X 0DD#0000000000000000
(9151.0) X 0D3#E721731EE7A5871E
(9157.0) X 0C0#0000000000000000
(9161.0) X 0A1#140103081608F0D8
(9167.0) X 0C0#0000000000000000
(9170.0) X 0DD#FFFF000000000000
(9178.0) X 0C0#0000000000000000
(9180.0) X 0A7#0600000006000800
(9187.0) X 0C0#0000000000000000
(9191.0) X 0DD#0100000000000000
(9194.0) X 0D3#E721731EE8A5971E
(9199.0) X 0AD#FFFF000000000000
(9206.0) X 0DE#1000492025032220
(9212.0) X 0DD#FFFF000000000000
(9218.0) X 0C0#0000000000000000
(9221.0) X 0AD#FFFF000000000000
(9228.0) X 0C0#0000000000000000
(9234.0) X 0DD#0100000000000000
(9235.0) X 0D5#F103000000000EFC
(9241.0) X 0AD#0000000000000000
(9243.0) X 0A5#570100000000A8FE
(9247.0) X 0F0#0000000000000000
(9254.0) X 0DD#FFFF000000000000
(9257.0) X 0C0#0000000000000000
(9263.0) X 0AD#FFFF000000000000
(9268.0) X 0C0#0000000000000000
(9276.0) X 0DD#FFFF000000000000
(9277.0) X 0D5#F103000000000EFC
(9283.0) X 0AD#FFFF000000000000
(9285.0) X 0A5#580100000000A8FE
(9296.0) X 0DD#FFFF000000000000
(9298.0) X 0D6#0100000005000000
(9305.0) X 0AD#FFFF000000000000
(9307.0) X 0A5#580100000000A8FE
(9318.0) X 0C0#0000000000000000
(9319.0) X 0D6#07000000FEFF0000
(9325.0) X 0AD#0000000000000000
(9327.0) X 0A5#580100000000A8FE
(9337.0) X 0C0#0000000000000000
(9339.0) X 0DB#0000000000000000
(9347.0) X 0AD#FFFF000000000000
(9349.0) X 0A5#580100000000A8FE
(9358.0) X 0C0#0000000000000000
(9360.0) X 0DD#FFFF000000000000
(9362.0) X 0D3#E821831EE7A1971E
(9368.0) X 0AD#0000000000000000
(9377.0) X 0C0#0000000000000000
(9380.0) X 0DD#0000000000000000
(9382.0) X 0D5#F203000000000EFC
(9388.0) X 0C0#0000000000000000
(9398.0) X 0C0#0000000000000000
(9402.0) X 0DD#FFFF000000000000
(9404.0) X 0D5#F303000000000EFC
(9408.0) X 0C0#0000000000000000
(9411.0) X 0A5#570100000000A9FE
(9418.0) X 0C0#0000000000000000
(9423.0) X 0DD#FFFF000000000000
(9427.0) X 0C0#0000000000000000
(9431.0) X 0AD#FFFF000000000000
(9438.0) X 0C0#0000000000000000
(9444.0) X 0DD#FFFF000000000000
(9446.0) X 0D5#F203000000000EFC
(9452.0) X 0AD#FFFF000000000000
(9453.0) X 0A5#570100000000A9FE
(9458.0) X 0F0#0000000000000000
(9465.0) X 0DD#0000000000000000
(9467.0) X 0A2#F0D8F0D8E2000000
(9473.0) X 0AD#FFFF000000000000
(9478.0) X 0C0#0000000000000000
(9486.0) X 0DD#FFFF000000000000
(9488.0) X 0D5#F103000000000EFC
(9494.0) X 0AD#FFFF000000000000
(9496.0) X 0A5#570100000000A9FE
(9507.0) X 0DD#FFFF000000000000
(9508.0) X 0D6#FCFFFCFF02000000
(9513.0) X 0DE#1000492025032220
(9516.0) X 0A8#1300AFC90100F9FF
(9528.0) X 0C0#0000000000000000
(9530.0) X 0D6#FCFFF9FFF6FF0000
(9536.0) X 0AD#0000000000000000
(9538.0) X 0A5#560100000000A9FE
(9548.0) X 0C0#0000000000000000
(9549.0) X 0DB#0000000000000000
(9558.0) X 0AD#FFFF000000000000
(9559.0) X 0A5#560100000000A9FE
(9568.0) X 0C0#0000000000000000
(9570.0) X 0A1#150103081608F0D8
(9573.0) X 0D3#E721831EE8A5971E
(9578.0) X 0AD#FFFF000000000000
(9588.0) X 0C0#0000000000000000
(9591.0) X 0DD#0100000000000000
(9593.0) X 0D5#F203000000000EFC
(9598.0) X 0C0#0000000000000000
(9608.0) X 0C0#0000000000000000
(9613.0) X 0DD#FFFF000000000000
(9614.0) X 0D5#F203000000000EFC
(9618.0) X 0C0#0000000000000000
(9622.0) X 0A5#570100000000A9FE
(9628.0) X 0C0#0000000000000000
(9633.0) X 0DD#0000000000000000
(9638.0) X 0C0#0000000000000000
(9641.0) X 0AD#0000000000000000
(9649.0) X 0C0#0000000000000000
(9655.0) X 0DD#0000000000000000
(9656.0) X 0D5#F203000000000EFC
(9662.0) X 0AD#0000000000000000
(9664.0) X 0A6#FEFF0000FEFF0000
(9668.0) X 0F0#0000000000000000
(9675.0) X 0DD#FFFF000000000000
(9678.0) X 0C0#0000000000000000
(9683.0) X 0AD#FFFF000000000000
(9689.0) X 0C0#0000000000000000
(9697.0) X 0DD#FFFF000000000000
(9698.0) X 0D5#F203000000000EFC
(9704.0) X 0AD#FFFF000000000000
(9706.0) X 0A5#580100000000A9FE
(9717.0) X 0DD#FFFF000000000000
(9719.0) X 0D8#1300D3E40000FDFF
(9725.0) X 0AD#0000000000000000
(9728.0) X 0A5#580100000000A9FE
(9739.0) X 0C0#0000000000000000
(9740.0) X 0D6#FFFF0200FDFF0000
(9747.0) X 0AD#0000000000000000
(9748.0) X 0A5#570100000000A9FE
(9758.0) X 0C0#0000000000000000
(9760.0) X 0DB#0000000000000000
(9767.0) X 0AD#FFFF000000000000
(9769.0) X 0A5#580100000000A9FE
(9774.0) X 0AE#1000492025032220
(9779.0) X 0C0#0000000000000000
(9782.0) X 0DA#0400090000004000
(9789.0) X 0C0#0000000000000000
(9791.0) X 0A4#0000000000000000
(9798.0) X 0C0#0000000000000000
(9802.0) X 0DD#0000000000000000
(9808.0) X 0C0#0000000000000000
(9810.0) X 0AA#0400090000004000
(9819.0) X 0C0#0000000000000000
(9821.0) X 0D1#1D019605A605F0D8
(9824.0) X 0DA#0400090000004000
(9829.0) X 0C0#0000000000000000
(9833.0) X 0A3#E825831EE9A5A71E
(9839.0) X 0C0#0000000000000000
(9844.0) X 0DD#0100000000000000
(9848.0) X 0C0#0000000000000000
(9851.0) X 0AD#FFFF000000000000
(9859.0) X 0C0#0000000000000000
(9865.0) X 0DD#0100000000000000
(9867.0) X 0D5#F303000000000EFC
(9873.0) X 0AD#FFFF000000000000
(9875.0) X 0A3#E825831EE9A5A71E
(9886.0) X 0DD#0000000000000000
(9887.0) X 0D5#F203000000000EFC
(9893.0) X 0AD#FFFF000000000000
(9895.0) X 0A5#580100000000A9FE
(9907.0) X 0DD#0000000000000000
(9909.0) X 0D5#F203000000000EFC
(9915.0) X 0AD#0100000000000000
(9917.0) X 0A5#580100000000A9FE
(9922.0) X 0DE#1000492025032220
(9928.0) X 0DD#0000000000000000
(9930.0) X 0D5#F203000000000EFC
(9936.0) X 0AD#FFFF000000000000
(9939.0) X 0F0#0000000000000000
(9949.0) X 0C0#0000000000000000
(9951.0) X 0D6#0000FFFF05000000
(9957.0) X 0AD#FFFF000000000000
(9959.0) X 0A5#580100000000A8FE
(9969.0) X 0C0#0000000000000000
(9970.0) X 0DB#0000000000000000
(9977.0) X 1B5#0004000000260000
(9979.0) X 0AA#0400090000004000
(9982.0) X 1B7#0000000000000000
(9989.0) X 0C0#0000000000000000
(9992.0) X 0D8#1300D3E4F1FFEDFF
(9999.0) X 0AD#FFFF000000000000
(10002.0) X 0C0#0000000000000000
(10009.0) X 0C0#0000000000000000
(10012.0) X 0DD#FFFF000000000000
(10019.0) X 0C0#0000000000000000
(10020.0) X 0AA#0400090000004000
(10025.0) X 0D0#D600D800D6001A01
(10034.0) X 0DD#0000000000000000
(10035.0) X 0D5#F203000000000EFC
(10040.0) X 0F0#0000000000000000
(10049.0) X 0C0#0000000000000000
(10054.0) X 0DD#FFFF000000000000
(10056.0) X 0D5#F203000000000EFC
(10059.0) X 0C0#0000000000000000
(10063.0) X 0A6#F8FFFBFF00000000
(10070.0) X 0C0#0000000000000000
(10076.0) X 0DD#0000000000000000
(10080.0) X 0C0#0000000000000000
(10083.0) X 0AD#FFFF000000000000
(10089.0) X 0C0#0000000000000000
(10096.0) X 0DD#FFFF000000000000
(10098.0) X 0D5#F203000000000EFC
(10104.0) X 0AD#0000000000000000
(10106.0) X 0A4#0000000000000000
(10118.0) X 0DD#FFFF000000000000
(10119.0) X 0D5#F203000000000EFC
(10126.0) X 0AD#0000000000000000
(10127.0) X 0A5#580100000000A8FE
(10138.0) X 0DD#FFFF000000000000
(10140.0) X 0D6#0000030000000000
(10146.0) X 0AD#FFFF000000000000
(10148.0) X 0A5#580100000000A8FE
(10160.0) X 0C0#0000000000000000
(10161.0) X 0D6#FBFFFBFFFAFF0000
(10168.0) X 0AD#FFFF000000000000
(10169.0) X 0A5#580100000000A8FE
(10179.0) X 0C0#0000000000000000
(10181.0) X 0DB#0000000000000000
(10184.0) X 0D3#E725831EE8A5971E
(10188.0) X 0AC#0000000083E90B00
(10200.0) X 0C0#0000000000000000
(10202.0) X 0DD#FFFF000000000000
(10210.0) X 0C0#0000000000000000
(10212.0) X 0F0#0000000000000000
(10220.0) X 0C0#0000000000000000
(10223.0) X 0DD#0000000000000000
(10226.0) X 0D1#1D019605A605F0D8
(10231.0) X 0AB#0000000000000000
(10240.0) X 0C0#0000000000000000
(10244.0) X 0DD#FFFF000000000000
(10246.0) X 0D5#F203000000000EFC
(10252.0) X 0AD#FFFF000000000000
(10260.0) X 0C0#0000000000000000
(10265.0) X 0DD#FFFF000000000000
(10266.0) X 0D5#F203000000000EFC
(10269.0) X 0C0#0000000000000000
(10274.0) X 0A6#0000FEFFFEFF0000
(10279.0) X 0C0#0000000000000000
(10285.0) X 0AE#1000492025032220
(10290.0) X 0C0#0000000000000000
(10294.0) X 0AD#FFFF000000000000
(10300.0) X 0C0#0000000000000000
(10307.0) X 0DD#FFFF000000000000
(10309.0) X 0D5#F203000000000EFC
(10315.0) X 0AD#FFFF000000000000
(10317.0) X 0A3#E825831EE8A5971E
(10328.0) X 0DD#0000000000000000
(10330.0) X 0D7#0800000005000700
(10336.0) X 0AD#0000000000000000
(10338.0) X 0A5#580100000000A8FE
(10349.0) X 0DD#0000000000000000
(10351.0) X 0D6#0100040002000000
(10357.0) X 0AD#FFFF000000000000
(10358.0) X 0A5#580100000000A8FE
(10370.0) X 0C0#0000000000000000
(10372.0) X 0D6#FFFFFFFFF4FF0000
(10378.0) X 0AD#FFFF000000000000
(10380.0) X 0A5#580100000000A8FE
(10387.0) X 0AE#1000492025032220
(10390.0) X 0C0#0000000000000000
(10399.0) X 0AD#0000000000000000
(10400.0) X 0A5#580100000000A8FE
(10411.0) X 0C0#0000000000000000
(10413.0) X 0DD#FFFF000000000000
(10420.0) X 0AD#FFFF000000000000
(10422.0) X 0A5#570100000000A8FE
(10430.0) X 0C0#0000000000000000
(10433.0) X 0DD#FFFF000000000000
(10435.0) X 0D5#F203000000000EFC
(10440.0) X 0C0#0000000000000000
(10450.0) X 0C0#0000000000000000
(10455.0) X 0DD#0000000000000000
(10456.0) X 0D5#F203000000000EFC
(10460.0) X 0C0#0000000000000000
(10464.0) X 0A4#0000000000000000
(10470.0) X 0C0#0000000000000000
(10475.0) X 0DD#0000000000000000
(10480.0) X 0C0#0000000000000000
(10483.0) X 0AD#FFFF000000000000
(10489.0) X 0AE#1000492025032220
(10497.0) X 0DD#0000000000000000
(10498.0) X 0D5#F203000000000EFC
(10504.0) X 0AD#0000000000000000
(10510.0) X 0C0#0000000000000000
(10517.0) X 0DD#FFFF000000000000
(10519.0) X 0D5#F303000000000EFC
(10525.0) X 0AD#FFFF000000000000
(10527.0) X 0A5#580100000000A9FE
(10532.0) X 0DE#1000492025032220
(10539.0) X 0DD#0100000000000000
(10541.0) X 0D3#E721831EE8A5971E
(10547.0) X 0AD#FFFF000000000000
(10551.0) X 0C0#0000000000000000
(10559.0) X 0DD#FFFF000000000000
(10561.0) X 0D6#FAFFFAFFFEFF0000
(10567.0) X 0AD#FFFF000000000000
(10569.0) X 0A3#E825831EE8A5A71E
(10580.0) X 0C0#0000000000000000
(10583.0) X 0D6#0500050000000000
(10589.0) X 0AD#FFFF000000000000
(10590.0) X 0A7#050000000B000300
(10600.0) X 0C0#0000000000000000
(10602.0) X 0DA#0400090000004000
(10609.0) X 0AD#FFFF000000000000
(10611.0) X 0A5#580100000000A9FE
(10620.0) X 0C0#0000000000000000
(10622.0) X 0DD#FFFF000000000000
(10631.0) X 0AD#FFFF000000000000
(10632.0) X 0A5#580100000000A9FE
(10641.0) X 0C0#0000000000000000
(10644.0) X 0DD#FFFF000000000000
(10645.0) X 0D5#F203000000000EFC
(10650.0) X 0C0#0000000000000000
(10660.0) X 0C0#0000000000000000
(10664.0) X 0DD#FFFF000000000000
(10667.0) X 0D5#F203000000000EFC
(10671.0) X 0C0#0000000000000000
(10675.0) X 0A4#0000000000000000
(10681.0) X 0C0#0000000000000000
(10686.0) X 0DD#FFFF000000000000
(10690.0) X 0AE#1000492025032220
(10694.0) X 0AD#FFFF000000000000
(10700.0) X 0C0#0000000000000000
(10706.0) X 0DD#FFFF000000000000
(10708.0) X 0D5#F203000000000EFC
(10715.0) X 0AD#FFFF000000000000
(10721.0) X 0C0#0000000000000000
(10728.0) X 0DD#FFFF000000000000
(10730.0) X 0D5#F203000000000EFC
(10734.0) X 0DE#1000492025032220
(10737.0) X 0A6#FFFFF8FFFBFF0000
(10748.0) X 0DD#0100000000000000
(10750.0) X 0D5#F103000000000EFC
(10757.0) X 0AD#FFFF000000000000
(10759.0) X 0A5#580100000000A8FE
(10770.0) X 0DD#FFFF000000000000
(10772.0) X 0D6#0400FDFF05000000
(10778.0) X 0AD#FFFF000000000000
(10779.0) X 0A5#580100000000A8FE
(10790.0) X 0C0#0000000000000000
(10792.0) X 0D6#0400050002000000
(10799.0) X 0AD#0100000000000000
(10801.0) X 0A5#570100000000A8FE
(10811.0) X 0C0#0000000000000000
(10813.0) X 0DB#0000000000000000
(10820.0) X 0AD#0000000000000000
(10822.0) X 0A5#580100000000A8FE
(10831.0) X 0C0#0000000000000000
(10833.0) X 0DD#FFFF000000000000
(10836.0) X 0DE#1000492025032220
(10841.0) X 0AD#FFFF000000000000
(10851.0) X 0C0#0000000000000000
(10854.0) X 0DD#FFFF000000000000
(10856.0) X 0D5#F203000000000EFC
(10861.0) X 0C0#0000000000000000
(10871.0) X 0C0#0000000000000000
(10875.0) X 0DD#0000000000000000
(10877.0) X 0D3#E821831EE7A1971E
(10883.0) X 0AD#FFFF000000000000
(10891.0) X 0C0#0000000000000000
(10895.0) X 0AE#1000492025032220
(10897.0) X 0DB#0000000000000000
(10901.0) X 0C0#0000000000000000
(10906.0) X 0A5#580100000000A8FE
(10911.0) X 0C0#0000000000000000
(10917.0) X 0DD#0000000000000000
(10921.0) X 0C0#0000000000000000
(10926.0) X 0AD#FFFF000000000000
(10931.0) X 0C0#0000000000000000
(10938.0) X 0DD#0000000000000000
(10940.0) X 0D7#0C00000000000300
(10946.0) X 0AD#0000000000000000
(10951.0) X 0C0#0000000000000000
(10959.0) X 0DD#FFFF000000000000
(10961.0) X 0D5#F203000000000EFC
(10968.0) X 0AD#FFFF000000000000
(10969.0) X 0A5#590100000000A8FE
(10975.0) X 1B5#0004000000270000
(10979.0) X 1BB#FFFF080499990000
(10983.0) X 0D3#E725731EE8A5871E
(10988.0) X 0AD#0000000000000000
(10997.0) X 0AE#1000492025032220
(11001.0) X 0C0#0000000000000000
(11003.0) X 0D6#FBFF0000F7FF0000
(11010.0) X 0AD#0000000000000000
(11012.0) X 0A3#E825831EE8A5A71E
(11022.0) X 0C0#0000000000000000
(11023.0) X 0DB#0000000000000000
(11030.0) X 0AD#FFFF000000000000
(11032.0) X 0A5#580100000000A8FE
(11040.0) X 0DE#1000492025032220
(11043.0) X 0DD#FFFF000000000000
(11045.0) X 0D5#F203000000000EFC
(11052.0) X 0AD#FFFF000000000000
(11062.0) X 0C0#0000000000000000
(11065.0) X 0DD#FFFF000000000000
(11066.0) X 0D5#F203000000000EFC
(11072.0) X 0C0#0000000000000000
(11081.0) X 0C0#0000000000000000
(11085.0) X 0DD#FFFF000000000000
(11087.0) X 0D5#F203000000000EFC
(11091.0) X 0C0#0000000000000000
(11096.0) X 0A4#0000000000000000
(11101.0) X 0A0#CE00CD00D1001101
(11107.0) X 0DD#0000000000000000
(11112.0) X 0C0#0000000000000000
(11115.0) X 0AD#FFFF000000000000
(11121.0) X 0C0#0000000000000000
(11127.0) X 0DD#0000000000000000
(11129.0) X 0D5#F203000000000EFC
(11136.0) X 0AD#0000000000000000
(11142.0) X 0C0#0000000000000000
(11144.0) X 0D1#1E019605A605F0D8
(11149.0) X 0DD#0100000000000000
(11157.0) X 0AD#0000000000000000
(11158.0) X 0A5#580100000000A8FE
(11169.0) X 0DD#0000000000000000
(11171.0) X 0D5#F103000000000EFC
(11177.0) X 0AD#0000000000000000
(11180.0) X 0A5#570100000000A8FE
(11191.0) X 0DD#FFFF000000000000
(11193.0) X 0D6#0100000002000000
(11199.0) X 0AD#FFFF000000000000
(11200.0) X 0A5#580100000000A8FE
(11212.0) X 0C0#0000000000000000
(11213.0) X 0D6#0400010008000000
(11219.0) X 0AD#FFFF000000000000
(11222.0) X 0A5#580100000000A8FE
(11232.0) X 0C0#0000000000000000
(11234.0) X 0DB#0000000000000000
(11241.0) X 0AD#FFFF000000000000
(11243.0) X 0A5#580100000000A8FE
(11246.0) X 0D0#D600D800D7001901
(11252.0) X 0C0#0000000000000000
(11255.0) X 0D6#0400040005000000
(11261.0) X 0C0#0000000000000000
(11272.0) X 0C0#0000000000000000
(11275.0) X 0DD#FFFF000000000000
(11277.0) X 0D5#F203000000000EFC
(11282.0) X 0C0#0000000000000000
(11292.0) X 0C0#0000000000000000
(11296.0) X 0DD#0000000000000000
(11298.0) X 0D5#F203000000000EFC
(11302.0) X 0C0#0000000000000000
(11305.0) X 0A6#0000050007000000
(11312.0) X 0C0#0000000000000000
(11317.0) X 0DD#FFFF000000000000
(11322.0) X 0C0#0000000000000000
(11325.0) X 0AD#FFFF000000000000
(11332.0) X 0C0#0000000000000000
(11338.0) X 0DD#0100000000000000
(11340.0) X 0D5#F203000000000EFC
(11346.0) X 0AD#FFFF000000000000
(11348.0) X 0D9#9600FB00FC018504
(11360.0) X 0DD#0000000000000000
(11362.0) X 0C0#0000000000000000
(11367.0) X 0AD#0000000000000000
(11372.0) X 0C0#0000000000000000
(11380.0) X 0DD#0000000000000000
(11382.0) X 0D5#F203000000000EFC
(11388.0) X 0AD#FFFF000000000000
(11390.0) X 0A3#E725831EE9A5A71E
(11402.0) X 0DD#0000000000000000
(11403.0) X 0D6#0500FDFF0B000000
(11406.0) X 0AE#1000492025032220
(11411.0) X 0A6#0400030000000000
(11422.0) X 0C0#0000000000000000
(11424.0) X 0D6#E2FFF9FFFBFF0000
(11430.0) X 0AD#FFFF000000000000
(11432.0) X 0A5#580100000000A8FE
(11443.0) X 0C0#0000000000000000
(11445.0) X 0D6#0400020000000000
(11450.0) X 0D9#9600FB00FB018404
(11462.0) X 0C0#0000000000000000
(11464.0) X 0DD#FFFF000000000000
(11472.0) X 0AD#0000000000000000
(11474.0) X 0A5#580100000000A8FE
(11483.0) X 0C0#0000000000000000
(11486.0) X 0DD#0000000000000000
(11488.0) X 0D5#F203000000000EFC
(11493.0) X 0C0#0000000000000000
(11502.0) X 0C0#0000000000000000
(11506.0) X 0DD#FFFF000000000000
(11508.0) X 0D5#F303000000000EFC
(11512.0) X 0C0#0000000000000000
(11516.0) X 0A4#0000000000000000
(11523.0) X 0C0#0000000000000000
(11528.0) X 0DD#FFFF000000000000
(11533.0) X 0C0#0000000000000000
(11536.0) X 0AD#FFFF000000000000
(11543.0) X 0C0#0000000000000000
(11548.0) X 0DD#FFFF000000000000
(11550.0) X 0D5#F103000000000EFC
(11556.0) X 0AD#0000000000000000
(11563.0) X 0C0#0000000000000000
(11570.0) X 0DD#FFFF000000000000
(11572.0) X 0D5#F203000000000EFC
(11578.0) X 0AD#FFFF000000000000
(11579.0) X 0A5#580100000000A8FE
(11591.0) X 0DD#FFFF000000000000
(11592.0) X 0D5#F203000000000EFC
(11598.0) X 0AD#0000000000000000
(11600.0) X 0A5#580100000000A8FE
(11611.0) X 0AE#1000492025032220
(11613.0) X 0DB#0000000000000000
(11620.0) X 0AD#FFFF000000000000
(11622.0) X 0A5#580100000000A8FE
(11633.0) X 0C0#0000000000000000
(11634.0) X 0D6#0100000000000000
(11640.0) X 0AD#FFFF000000000000
(11642.0) X 0A5#580100000000A8FE
(11653.0) X 0C0#0000000000000000
(11655.0) X 0DC#000001005FEB0B00
(11658.0) X 0D0#D600D800D7001A01
(11662.0) X 0AC#000000006DEB0B00
(11673.0) X 0C0#0000000000000000
(11675.0) X 0DD#0000000000000000
(11683.0) X 0C0#0000000000000000
(11684.0) X 0A6#03000500FBFF0000
(11693.0) X 0C0#0000000000000000
(11696.0) X 0DD#FFFF000000000000
(11698.0) X 0D5#F203000000000EFC
(11703.0) X 0C0#0000000000000000
(11713.0) X 0AE#1000492025032220
(11717.0) X 0DD#FFFF000000000000
(11719.0) X 0D5#F203000000000EFC
(11723.0) X 0C0#0000000000000000
(11727.0) X 0A4#0000000000000000
(11732.0) X 0C0#0000000000000000
(11739.0) X 0DD#FFFF000000000000
(11743.0) X 0C0#0000000000000000
(11746.0) X 0AD#0100000000000000
(11753.0) X 0C0#0000000000000000
(11756.0) X 0DE#1000492025032220
(11760.0) X 0D8#1300D3E40000FDFF
(11767.0) X 0AD#FFFF000000000000
(11773.0) X 0C0#0000000000000000
(11781.0) X 0DD#FFFF000000000000
(11782.0) X 0D5#F103000000000EFC
(11788.0) X 0AD#0000000000000000
(11790.0) X 0A5#590100000000A8FE
(11801.0) X 0DD#FFFF000000000000
(11803.0) X 0D5#F203000000000EFC
(11809.0) X 0AD#FFFF000000000000
(11811.0) X 0A5#590100000000A8FE
(11815.0) X 0A9#9700FA00FD019E04
(11823.0) X 0DD#0100000000000000
(11825.0) X 0D3#E821831EE7A1871E
(11830.0) X 0AD#0000000000000000
(11843.0) X 0C0#0000000000000000
(11845.0) X 0D6#0000F9FF16000000
(11851.0) X 0AD#0000000000000000
(11853.0) X 0A5#590100000000A8FE
(11858.0) X 0DE#1000492025032220
(11864.0) X 0C0#0000000000000000
(11873.0) X 0AD#0000000000000000
(11874.0) X 0A5#580100000000A8FE
(11883.0) X 0C0#0000000000000000
(11885.0) X 0DD#FFFF000000000000
(11893.0) X 0AD#0100000000000000
(11895.0) X 0A5#580100000000A8FE
(11904.0) X 0C0#0000000000000000
(11907.0) X 0DD#0000000000000000
(11909.0) X 0D5#F203000000000EFC
(11914.0) X 0C0#0000000000000000
(11917.0) X 0AE#1000492025032220
(11923.0) X 0C0#0000000000000000
(11927.0) X 0DD#FFFF000000000000
(11933.0) X 0C0#0000000000000000
(11936.0) X 0A8#1300AFC90000FBFF
(11943.0) X 0C0#0000000000000000
(11949.0) X 0DD#FFFF000000000000
(11951.0) X 0D3#E721731EE7A5871E
(11957.0) X 0AD#FFFF000000000000
(11961.0) X 0DE#1000492025032220
(11970.0) X 0DD#0000000000000000
(11971.0) X 0D5#F103000000000EFC
(11977.0) X 0AD#0000000000000000
(11979.0) X 0A5#580100000000A8FE
(11991.0) X 0DD#FFFF000000000000
(11993.0) X 0D5#F203000000000EFC
(11996.0) X 1BC#0000000000000000
(12000.0) X 0A6#0100010003000000
(12012.0) X 0DD#0000000000000000
(12013.0) X 0D5#F103000000000EFC
(12019.0) X 0AD#0000000000000000
(12021.0) X 0A7#0600000009000500
(12033.0) X 0DD#FFFF000000000000
(12035.0) X 0D6#02000000FFFF0000
(12041.0) X 0AD#0000000000000000
(12043.0) X 0A5#570100000000A8FE
(12054.0) X 0C0#0000000000000000
(12055.0) X 0D6#0200FBFF01000000
(12061.0) X 0AD#FFFF000000000000
(12063.0) X 0A5#570100000000A8FE
(12073.0) X 0C0#0000000000000000
(12076.0) X 0DA#0400090000004000
(12083.0) X 0AD#FFFF000000000000
(12085.0) X 0A5#570100000000A8FE
(12094.0) X 0C0#0000000000000000
(12096.0) X 0DD#0100000000000000
(12104.0) X 0AD#0000000000000000
(12105.0) X 0A5#590100000000A8FE
(12113.0) X 0C0#0000000000000000
(12116.0) X 0DD#FFFF000000000000
(12119.0) X 0D5#F203000000000EFC
(12124.0) X 0C0#0000000000000000
(12134.0) X 0C0#0000000000000000
(12138.0) X 0DD#FFFF000000000000
(12140.0) X 0D5#F203000000000EFC
(12144.0) X 0C0#0000000000000000
(12148.0) X 0A4#0000000000000000
(12154.0) X 0C0#0000000000000000
(12160.0) X 0DD#0000000000000000
(12164.0) X 0C0#0000000000000000
(12167.0) X 0AD#FFFF000000000000
(12174.0) X 0C0#0000000000000000
(12180.0) X 0DD#0000000000000000
(12182.0) X 0D5#F203000000000EFC
(12188.0) X 0AD#0000000000000000
(12194.0) X 0C0#0000000000000000
(12201.0) X 0DD#0000000000000000
(12203.0) X 0D5#F303000000000EFC
(12209.0) X 0AD#0000000000000000
(12211.0) X 0A5#580100000000A8FE
(12222.0) X 0DD#FFFF000000000000
(12224.0) X 0D5#F303000000000EFC
(12230.0) X 0AD#FFFF000000000000
(12232.0) X 0A5#580100000000A8FE
(12243.0) X 0DD#0000000000000000
(12246.0) X 0D6#0300FCFFEEFF0000
(12252.0) X 0AD#FFFF000000000000
(12253.0) X 0A5#580100000000A8FE
(12264.0) X 0C0#0000000000000000
(12266.0) X 0D6#0300FFFF0D000000
(12272.0) X 0AD#0000000000000000
(12274.0) X 0A5#580100000000A8FE
(12284.0) X 0C0#0000000000000000
(12285.0) X 0DB#0000000000000000
(12294.0) X 0AD#FFFF000000000000
(12295.0) X 0A5#580100000000A8FE
(12304.0) X 0C0#0000000000000000
(12306.0) X 0DD#FFFF000000000000
(12314.0) X 0AD#FFFF000000000000
(12316.0) X 0A5#580100000000A8FE
(12324.0) X 0C0#0000000000000000
(12326.0) X 0AE#1000492025032220
(12328.0) X 0D6#0300FFFF02000000
(12335.0) X 0C0#0000000000000000
(12345.0) X 0C0#0000000000000000
(12349.0) X 0DD#FFFF000000000000
(12350.0) X 0D5#F203000000000EFC
(12354.0) X 0C0#0000000000000000
(12358.0) X 0A4#0000000000000000
(12364.0) X 0C0#0000000000000000
(12369.0) X 0DD#FFFF000000000000
(12372.0) X 0D1#1E019605A605F0D8
(12378.0) X 0AD#FFFF000000000000
(12385.0) X 0C0#0000000000000000
(12391.0) X 0DD#FFFF000000000000
(12392.0) X 0D5#F203000000000EFC
(12398.0) X 0AD#0100000000000000
(12404.0) X 0C0#0000000000000000
(12411.0) X 0DD#FFFF000000000000
(12413.0) X 0D5#F203000000000EFC
(12420.0) X 0AD#FFFF000000000000
(12422.0) X 0A5#590100000000A8FE
(12429.0) X 0AE#1000492025032220
(12433.0) X 0DD#0000000000000000
(12435.0) X 0D3#E821831EE8A5971E
(12440.0) X 0AD#FFFF000000000000
(12444.0) X 0C0#0000000000000000
(12453.0) X 0DD#FFFF000000000000
(12455.0) X 0D6#010000000A000000
(12462.0) X 0AD#0000000000000000
(12464.0) X 0A3#E825831EE8A5971E
(12472.0) X 0DE#1000492025032220
(12475.0) X 0C0#0000000000000000
(12483.0) X 0AD#0100000000000000
(12484.0) X 0A5#580100000000A8FE
(12494.0) X 0C0#0000000000000000
(12496.0) X 0DA#0400090000004000
(12504.0) X 0AD#FFFF000000000000
(12515.0) X 0C0#0000000000000000
(12517.0) X 0DD#FFFF000000000000
(12525.0) X 0AD#FFFF000000000000
(12526.0) X 0A5#580100000000A8FE
(12530.0) X 0AE#1000492025032220
(12535.0) X 0C0#0000000000000000
(12538.0) X 0DA#0400090000004000
(12545.0) X 0C0#0000000000000000
(12555.0) X 0C0#0000000000000000
(12559.0) X 0DD#FFFF000000000000
(12561.0) X 0D5#F203000000000EFC
(12565.0) X 0C0#0000000000000000
(12569.0) X 0A4#0000000000000000
(12574.0) X 0DE#1000492025032220
(12580.0) X 0DD#0100000000000000
(12584.0) X 0C0#0000000000000000
(12588.0) X 0AD#FFFF000000000000
(12595.0) X 0C0#0000000000000000
(12601.0) X 0DD#0100000000000000
(12605.0) X 0C0#0000000000000000
(12610.0) X 0AA#0400090000004000
(12615.0) X 0C0#0000000000000000
(12622.0) X 0DD#FFFF000000000000
(12624.0) X 0D4#0000000000000000
(12630.0) X 0AD#FFFF000000000000
(12634.0) X 0A2#F0D8F0D8E6000000
(12643.0) X 0DD#FFFF000000000000
(12645.0) X 0D5#F203000000000EFC
(12651.0) X 0AD#FFFF000000000000
(12653.0) X 0A5#580100000000A9FE
(12664.0) X 0DD#0100000000000000
(12666.0) X 0D6#0000000000000000
(12673.0) X 0AD#0000000000000000
(12674.0) X 0A5#570100000000A9FE
(12685.0) X 0C0#0000000000000000
(12687.0) X 0D6#0100000001000000
(12693.0) X 0AD#FFFF000000000000
(12695.0) X 0A5#570100000000A9FE
(12705.0) X 0C0#0000000000000000
(12706.0) X 0DB#0000000000000000
(12715.0) X 0AD#FFFF000000000000
(12716.0) X 0A5#580100000000A9FE
(12725.0) X 0C0#0000000000000000
(12728.0) X 0DD#0000000000000000
(12735.0) X 0C0#0000000000000000
(12737.0) X 0A8#1300AFC90100F2FF
(12745.0) X 0C0#0000000000000000
(12748.0) X 0DD#FFFF000000000000
(12750.0) X 0D5#F203000000000EFC
(12755.0) X 0C0#0000000000000000
(12766.0) X 0C0#0000000000000000
(12770.0) X 0DD#FFFF000000000000
(12771.0) X 0D5#F303000000000EFC
(12775.0) X 0C0#0000000000000000
(12779.0) X 0A4#0000000000000000
(12785.0) X 0C0#0000000000000000
(12790.0) X 0DD#FFFF000000000000
(12795.0) X 0C0#0000000000000000
(12798.0) X 0AD#0000000000000000
(12806.0) X 0C0#0000000000000000
(12812.0) X 0DD#0000000000000000
(12813.0) X 0D5#F203000000000EFC
(12819.0) X 0AD#FFFF000000000000
(12825.0) X 0C0#0000000000000000
(12832.0) X 0DD#0100000000000000
(12834.0) X 0D5#F103000000000EFC
(12837.0) X 0AE#1000492025032220
(12841.0) X 0A6#0500050015000000
(12854.0) X 0DD#FFFF000000000000
(12856.0) X 0D5#F203000000000EFC
(12862.0) X 0AD#FFFF000000000000
(12863.0) X 0A5#560100000000A9FE
(12874.0) X 0DD#FFFF000000000000
(12876.0) X 0D6#0400070004000000
(12880.0) X 0DE#1000492025032220
(12884.0) X 0A6#06000000F6FF0000
(12896.0) X 0C0#0000000000000000
(12898.0) X 0D6#0100FFFFFFFF0000
(12904.0) X 0AD#FFFF000000000000
(12905.0) X 0A5#570100000000A9FE
(12915.0) X 0C0#0000000000000000
(12917.0) X 0DB#0000000000000000
(12924.0) X 0AD#FFFF000000000000
(12926.0) X 0A5#570100000000A9FE
(12936.0) X 0C0#0000000000000000
(12938.0) X 0DD#0000000000000000
(12940.0) X 0A2#F0D8F0D8E7000000
(12946.0) X 0AD#0000000000000000
(12956.0) X 0C0#0000000000000000
(12959.0) X 0DD#FFFF000000000000
(12960.0) X 0D5#F203000000000EFC
(12965.0) X 0C0#0000000000000000
(12975.0) X 1B5#0004000000270000
(12977.0) X 1B7#0000000000000000
(12980.0) X 1BB#FFFF080499990000
(12986.0) X 0C0#0000000000000000
(12989.0) X 0A7#0500000009000300
(12996.0) X 0C0#0000000000000000
(13001.0) X 0DD#FFFF000000000000
(13003.0) X 0D3#E721831EE8A5971E
(13008.0) X 0AD#0000000000000000
(13016.0) X 0C0#0000000000000000
(13022.0) X 0DD#FFFF000000000000
(13024.0) X 0D5#F203000000000EFC
(13030.0) X 0AD#0100000000000000
(13032.0) X 0A4#0000000000000000
(13042.0) X 0AE#1000492025032220
(13043.0) X 0DB#0000000000000000
(13046.0) X 0F0#0000000000000000
(13051.0) X 0AC#000002003BED0B00
(13056.0) X 0C0#0000000000000000
(13064.0) X 0DD#FFFF000000000000
(13066.0) X 0D5#F203000000000EFC
(13072.0) X 0AD#0000000000000000
(13076.0) X 0C0#0000000000000000
(13085.0) X 0DD#FFFF000000000000
(13087.0) X 0D8#1300D3E4FEFFFEFF
(13093.0) X 0AA#0400090000004000
(13106.0) X 0C0#0000000000000000
(13108.0) X 0D6#FBFFFFFF03000000
(13114.0) X 0AD#0100000000000000
(13116.0) X 0A5#560100000000A9FE
(13126.0) X 0C0#0000000000000000
(13128.0) X 0DA#0400090000004000
(13135.0) X 0AD#0000000000000000
(13136.0) X 0A5#560100000000AAFE
(13144.0) X 0AE#1000492025032220
(13147.0) X 0C0#0000000000000000
(13150.0) X 0D6#FEFFFEFF03000000
(13156.0) X 0AD#FFFF000000000000
(13166.0) X 0C0#0000000000000000
(13169.0) X 0DD#0000000000000000
(13171.0) X 0D5#F203000000000EFC
(13176.0) X 0C0#0000000000000000
(13187.0) X 0C0#0000000000000000
(13188.0) X 0D1#1E019605A605F0D8
(13193.0) X 0D3#E821731EE7A5871E
(13198.0) X 0AD#FFFF000000000000
(13206.0) X 0C0#0000000000000000
(13211.0) X 0DD#FFFF000000000000
(13213.0) X 0D5#F203000000000EFC
(13216.0) X 0C0#0000000000000000
(13221.0) X 0A5#570100000000AAFE
(13227.0) X 0C0#0000000000000000
(13233.0) X 0DD#FFFF000000000000
(13237.0) X 0C0#0000000000000000
(13241.0) X 0AD#FFFF000000000000
(13246.0) X 0AE#1000492025032220
(13253.0) X 0DD#0000000000000000
(13255.0) X 0D5#F203000000000EFC
(13261.0) X 0AD#FFFF000000000000
(13266.0) X 0C0#0000000000000000
(13275.0) X 0DD#0000000000000000
(13277.0) X 0D5#F203000000000EFC
(13283.0) X 0AD#FFFF000000000000
(13284.0) X 0A5#570100000000A9FE
(13290.0) X 0DE#1000492025032220
(13296.0) X 0DD#FFFF000000000000
(13298.0) X 0D3#E821831EE7A1871E
(13303.0) X 0AD#FFFF000000000000
(13317.0) X 0C0#0000000000000000
(13319.0) X 0D6#00000300F8FF0000
(13325.0) X 0AD#0100000000000000
(13326.0) X 0A5#580100000000A9FE
(13337.0) X 0C0#0000000000000000
(13338.0) X 0DB#0000000000000000
(13345.0) X 0AD#FFFF000000000000
(13347.0) X 0A5#5A0100000000A9FE
(13357.0) X 0C0#0000000000000000
(13359.0) X 0DD#0100000000000000
(13367.0) X 0AD#0100000000000000
(13369.0) X 0A5#590100000000A9FE
(13377.0) X 0C0#0000000000000000
(13380.0) X 0DD#FFFF000000000000
(13381.0) X 0D5#F203000000000EFC
(13386.0) X 0C0#0000000000000000
(13391.0) X 0DE#1000492025032220
(13396.0) X 0C0#0000000000000000
(13401.0) X 0DD#FFFF000000000000
(13407.0) X 0C0#0000000000000000
(13410.0) X 0A8#1300AFC90000F6FF
(13417.0) X 0C0#0000000000000000
(13422.0) X 0DD#FFFF000000000000
(13424.0) X 0D3#E721731EE8A5971E
(13430.0) X 0AD#0000000000000000
(13436.0) X 0C0#0000000000000000
(13443.0) X 0DD#0000000000000000
(13445.0) X 0D5#F203000000000EFC
(13451.0) X 0AD#0000000000000000
(13453.0) X 0A7#050000000B000300
(13464.0) X 0DD#0000000000000000
(13466.0) X 0D5#F203000000000EFC
(13472.0) X 0AD#FFFF000000000000
(13473.0) X 0A5#590100000000A8FE
(13485.0) X 0DD#0000000000000000
(13487.0) X 0D5#F203000000000EFC
(13493.0) X 0AD#0100000000000000
(13495.0) X 0A5#580100000000A8FE
(13506.0) X 0DD#0000000000000000
(13508.0) X 0D6#0000FFFF01000000
(13514.0) X 0AD#0000000000000000
(13515.0) X 0A5#580100000000A8FE
(13527.0) X 0C0#0000000000000000
(13529.0) X 0D6#FEFFFCFFF9FF0000
(13535.0) X 0AD#0000000000000000
(13537.0) X 0A5#580100000000A8FE
(13547.0) X 0C0#0000000000000000
(13549.0) X 0DA#0400090000004000
(13553.0) X 0AE#1000492025032220
(13556.0) X 0AC#0000FFFFE3ED0B00
(13568.0) X 0C0#0000000000000000
(13570.0) X 0DD#0000000000000000
(13577.0) X 0AD#FFFF000000000000
(13579.0) X 0A5#580100000000A8FE
(13587.0) X 0C0#0000000000000000
(13590.0) X 0DD#0000000000000000
(13592.0) X 0D5#F203000000000EFC
(13596.0) X 0D9#9600FB00FC018204
(13607.0) X 0C0#0000000000000000
(13612.0) X 0DD#FFFF000000000000
(13613.0) X 0D5#F203000000000EFC
(13618.0) X 0C0#0000000000000000
(13621.0) X 0A4#0000000000000000
(13627.0) X 0C0#0000000000000000
(13632.0) X 0DD#0000000000000000
(13637.0) X 0C0#0000000000000000
(13640.0) X 0AD#FFFF000000000000
(13647.0) X 0C0#0000000000000000
(13654.0) X 0DD#FFFF000000000000
(13656.0) X 0D5#F203000000000EFC
(13662.0) X 0AD#FFFF000000000000
(13668.0) X 0C0#0000000000000000
(13674.0) X 0DD#0000000000000000
(13676.0) X 0D5#F203000000000EFC
(13682.0) X 0AD#FFFF000000000000
(13684.0) X 0A5#580100000000A8FE
(13696.0) X 0DD#FFFF000000000000
(13698.0) X 0D5#F203000000000EFC
(13704.0) X 0AD#0000000000000000
(13705.0) X 0A5#580100000000A8FE
(13717.0) X 0DD#FFFF000000000000
(13718.0) X 0D6#0100080002000000
(13724.0) X 0AD#FFFF000000000000
(13726.0) X 0A5#580100000000A8FE
(13737.0) X 0C0#0000000000000000
(13740.0) X 0D7#0C0000000A000C00
(13746.0) X 0AD#FFFF000000000000
(13747.0) X 0A5#580100000000A8FE
(13758.0) X 0AE#1000492025032220
(13759.0) X 0DC#000000001BEE0B00
(13766.0) X 0AD#0000000000000000
(13768.0) X 0A5#580100000000A8FE
(13777.0) X 0C0#0000000000000000
(13779.0) X 0DD#0100000000000000
(13788.0) X 0AD#FFFF000000000000
(13790.0) X 0A5#580100000000A8FE
(13798.0) X 0C0#0000000000000000
(13801.0) X 0DD#FFFF000000000000
(13802.0) X 0D7#080000000000FBFF
(13808.0) X 0C0#0000000000000000
(13817.0) X 0C0#0000000000000000
(13821.0) X 0DD#FFFF000000000000
(13824.0) X 0D5#F203000000000EFC
(13828.0) X 0C0#0000000000000000
(13832.0) X 0A4#0000000000000000
(13838.0) X 0C0#0000000000000000
(13843.0) X 0DD#0000000000000000
(13848.0) X 0C0#0000000000000000
(13851.0) X 0AD#0000000000000000
(13857.0) X 0C0#0000000000000000
(13860.0) X 0A2#F0D8F0D8E8000000
(13865.0) X 0D7#0900000003000C00
(13872.0) X 0AD#0000000000000000
(13878.0) X 0C0#0000000000000000
(13885.0) X 0DD#FFFF000000000000
(13887.0) X 0D5#F303000000000EFC
(13893.0) X 0AD#0000000000000000
(13894.0) X 0A5#570100000000A8FE
(13903.0) X 0DE#1000492025032220
(13906.0) X 0DD#FFFF000000000000
(13908.0) X 0D3#E821731EE7A1871E
(13914.0) X 0AD#FFFF000000000000
(13918.0) X 0C0#0000000000000000
(13927.0) X 0DD#FFFF000000000000
(13929.0) X 0D6#0000020000000000
(13935.0) X 0AD#FFFF000000000000
(13937.0) X 0A3#E825831EE9A5A71E
(13948.0) X 0C0#0000000000000000
(13949.0) X 0D6#FEFF0400F5FF0000
(13956.0) X 0AD#0000000000000000
(13958.0) X 0A5#580100000000A8FE
(13962.0) X 0AE#1000492025032220
(13968.0) X 0C0#0000000000000000
(13977.0) X 0AD#FFFF000000000000
(13979.0) X 0A5#580100000000A8FE
(13988.0) X 0C0#0000000000000000
(13990.0) X 0DD#0000000000000000
(13997.0) X 1B5#0004000000270000
(13999.0) X 0AB#0000000000000000
(14005.0) X 0DE#1000492025032220
(14008.0) X 0C0#0000000000000000
(14012.0) X 0DB#0000000000000000
(14018.0) X 0C0#0000000000000000
(14021.0) X 0A4#0000000000000000
(14028.0) X 0C0#0000000000000000
(14032.0) X 0DD#FFFF000000000000
(14039.0) X 0C0#0000000000000000
(14041.0) X 0AD#FFFF000000000000
(14048.0) X 0C0#0000000000000000
(14053.0) X 0DD#FFFF000000000000
(14055.0) X 0D5#F203000000000EFC
(14061.0) X 0AD#0000000000000000
(14064.0) X 0AE#1000492025032220
(14074.0) X 0DD#FFFF000000000000
(14076.0) X 0D5#F203000000000EFC
(14083.0) X 0AD#0100000000000000
(14084.0) X 0A5#570100000000A8FE
(14089.0) X 0C0#0000000000000000
(14096.0) X 0DD#0000000000000000
(14098.0) X 0C0#0000000000000000
(14103.0) X 0AD#FFFF000000000000
(14107.0) X 0DE#1000492025032220
(14116.0) X 0DD#FFFF000000000000
(14118.0) X 0D5#F203000000000EFC
(14125.0) X 0AD#FFFF000000000000
(14127.0) X 0A3#E825931EE9A5A71E
(14138.0) X 0DD#FFFF000000000000
(14139.0) X 0D6#0700040005000000
(14145.0) X 0AD#0000000000000000
(14147.0) X 0A5#580100000000A8FE
(14158.0) X 0C0#0000000000000000
(14160.0) X 0D6#0100040002000000
(14167.0) X 0AD#FFFF000000000000
(14169.0) X 0A7#0700000009000500
(14179.0) X 0C0#0000000000000000
(14180.0) X 0DA#0400090000004000
(14188.0) X 0AD#FFFF000000000000
(14189.0) X 0A5#580100000000A8FE
(14198.0) X 0C0#0000000000000000
(14200.0) X 0DD#0000000000000000
(14209.0) X 0AD#0000000000000000
(14211.0) X 0A5#580100000000A8FE
(14219.0) X 0C0#0000000000000000
(14222.0) X 0DD#FFFF000000000000
(14224.0) X 0D5#F203000000000EFC
(14229.0) X 0C0#0000000000000000
(14238.0) X 0C0#0000000000000000
(14242.0) X 0DD#FFFF000000000000
(14244.0) X 0D5#F203000000000EFC
(14248.0) X 0C0#0000000000000000
(14253.0) X 0A4#0000000000000000
(14259.0) X 0C0#0000000000000000
(14264.0) X 0DD#0100000000000000
(14269.0) X 0AE#1000492025032220
(14272.0) X 0AD#0000000000000000
(14279.0) X 0C0#0000000000000000
(14284.0) X 0DD#FFFF000000000000
(14286.0) X 0D5#F203000000000EFC
(14292.0) X 0AD#FFFF000000000000
(14299.0) X 0C0#0000000000000000
(14306.0) X 0DD#0000000000000000
(14308.0) X 0D5#F203000000000EFC
(14312.0) X 0DE#1000492025032220
(14315.0) X 0A6#0900010004000000
(14327.0) X 0DD#FFFF000000000000
(14328.0) X 0D5#F203000000000EFC
(14334.0) X 0AD#FFFF000000000000
(14339.0) X 0C0#0000000000000000
(14348.0) X 0DD#FFFF000000000000
(14350.0) X 0D6#0500F6FF02000000
(14356.0) X 0AD#FFFF000000000000
(14358.0) X 0A5#580100000000A8FE
(14369.0) X 0C0#0000000000000000
(14370.0) X 0D6#FBFF0200FFFF0000
(14376.0) X 0AD#FFFF000000000000
(14379.0) X 0A5#590100000000A8FE
(14389.0) X 0C0#0000000000000000
(14391.0) X 0DB#0000000000000000
(14398.0) X 0AD#FFFF000000000000
(14400.0) X 0A5#580100000000A8FE
(14409.0) X 0C0#0000000000000000
(14411.0) X 0DD#0000000000000000
(14419.0) X 0AD#0000000000000000
(14420.0) X 0A5#580100000000A8FE
(14429.0) X 0C0#0000000000000000
(14432.0) X 0DD#FFFF000000000000
(14435.0) X 0D3#E821731EE8A5871E
(14439.0) X 0C0#0000000000000000
(14449.0) X 0C0#0000000000000000
(14453.0) X 0DD#FFFF000000000000
(14455.0) X 0D5#F203000000000EFC
(14459.0) X 0C0#0000000000000000
(14464.0) X 0A4#0000000000000000
(14470.0) X 0C0#0000000000000000
(14473.0) X 0AE#1000492025032220
(14479.0) X 0C0#0000000000000000
(14482.0) X 0AD#FFFF000000000000
(14489.0) X 0C0#0000000000000000
(14495.0) X 0DD#FFFF000000000000
(14497.0) X 0D5#F203000000000EFC
(14503.0) X 0AD#0000000000000000
(14510.0) X 0C0#0000000000000000
(14517.0) X 0DD#FFFF000000000000
(14518.0) X 0D7#0E000000FDFFFBFF
(14524.0) X 0AD#FFFF000000000000
(14526.0) X 0A5#580100000000A8FE
(14537.0) X 0DD#FFFF000000000000
(14539.0) X 0D5#F203000000000EFC
(14545.0) X 0AD#FFFF000000000000
(14547.0) X 0A5#580100000000A8FE
(14559.0) X 0DD#0000000000000000
(14560.0) X 0D6#FFFF0400F5FF0000
(14566.0) X 0AD#0000000000000000
(14568.0) X 0A5#580100000000A8FE
(14575.0) X 0AE#1000492025032220
(14579.0) X 0C0#0000000000000000
(14582.0) X 0F0#0000000000000000
(14587.0) X 0AD#FFFF000000000000
(14600.0) X 0C0#0000000000000000
(14602.0) X 0DA#0400090000004000
(14609.0) X 0AD#0000000000000000
(14610.0) X 0A5#570100000000A8FE
(14618.0) X 0DE#1000492025032220
(14621.0) X 0DD#0000000000000000
(14623.0) X 0D5#F203000000000EFC
(14629.0) X 0AD#0000000000000000
(14640.0) X 0C0#0000000000000000
(14643.0) X 0DD#FFFF000000000000
(14645.0) X 0D5#F203000000000EFC
(14650.0) X 0C0#0000000000000000
(14659.0) X 0C0#0000000000000000
(14663.0) X 0DD#FFFF000000000000
(14665.0) X 0D5#F303000000000EFC
(14669.0) X 0C0#0000000000000000
(14673.0) X 0A4#0000000000000000
(14679.0) X 0A0#CE00CE00D1001101
(14685.0) X 0DD#FFFF000000000000
(14690.0) X 0C0#0000000000000000
(14693.0) X 0AD#0000000000000000
(14700.0) X 0C0#0000000000000000
(14706.0) X 0DD#FFFF000000000000
(14707.0) X 0D5#F203000000000EFC
(14713.0) X 0AD#FFFF000000000000
(14720.0) X 0C0#0000000000000000
(14722.0) X 0D1#1D019605A605F0D8
(14727.0) X 0DD#FFFF000000000000
(14735.0) X 0AD#FFFF000000000000
(14737.0) X 0A5#590100000000A8FE
(14748.0) X 0DD#0000000000000000
(14749.0) X 0D5#F203000000000EFC
(14755.0) X 0AD#FFFF000000000000
(14757.0) X 0A5#580100000000A8FE
(14769.0) X 0DD#FFFF000000000000
(14771.0) X 0D6#0600FFFFFEFF0000
(14777.0) X 0AD#0000000000000000
(14779.0) X 0A5#580100000000A8FE
(14790.0) X 0C0#0000000000000000
(14791.0) X 0D6#F8FFF6FFFEFF0000
(14798.0) X 0AD#FFFF000000000000
(14799.0) X 0A5#580100000000A8FE
(14810.0) X 0C0#0000000000000000
(14812.0) X 0DB#0000000000000000
(14819.0) X 0AD#FFFF000000000000
(14821.0) X 0A5#580100000000A8FE
(14824.0) X 0D0#D700D800D6001901
(14830.0) X 0C0#0000000000000000
(14833.0) X 0D6#FBFFF8FFFBFF0000
(14840.0) X 0AD#FFFF000000000000
(14850.0) X 0C0#0000000000000000
(14854.0) X 0DD#FFFF000000000000
(14855.0) X 0D5#F203000000000EFC
(14860.0) X 0C0#0000000000000000
(14870.0) X 0C0#0000000000000000
(14874.0) X 0DD#FFFF000000000000
(14876.0) X 0D5#F203000000000EFC
(14880.0) X 0C0#0000000000000000
(14884.0) X 0A6#FEFF000000000000
(14891.0) X 0C0#0000000000000000
(14896.0) X 0DD#FFFF000000000000
