(88740.0) X 000A0004#FFF7FFFFFFE84B12
(88750.0) X 000A0005#9796E7D000000000
(88760.0) X 000A0003#030500370FE90000
(88770.0) X 000A0004#FFF70000FFE84B12
(88780.0) X 000A0005#98DEE7D000000000
(88790.0) X 000A0003#030900360FE60000
(88800.0) X 000A0004#FFF60001FFE84B12
(88810.0) X 000A0002#00170B0600021E36
(88820.0) X 000A0003#030C00350FE40000
(88830.0) X 000A0005#98DEE7D000000000
(88840.0) X 000A0003#030D00350FE30000
(88850.0) X 000A0004#FFF60000FFE84B12
(88860.0) X 000A0005#98DEE7D000000000
(88870.0) X 000A0003#030F00340FE20000
(88880.0) X 000A0004#FFF70001FFE84B12
(88890.0) X 000A0005#98DEE7D000000000
(88900.0) X 000A0003#031000350FE20000
(88910.0) X 000A0005#98DEE7D000000000
(88920.0) X 000A0003#031100340FE10000
(88930.0) X 000A0004#FFF80002FFE74B12
(88940.0) X 000A0002#00170B0600021E36
(88950.0) X 000A0003#031200330FE10000
(88960.0) X 000A0004#FFF80002FFE74B12
(88970.0) X 000A0005#98DEE7D000000000
(88980.0) X 000A0003#031300320FE10000
(88990.0) X 000A0005#98DEE7D000000000
(89000.0) X 000A0003#031300320FE20000
(89010.0) X 000A0004#FFF80003FFE74B12
(89020.0) X 000A0005#98DEE7D000000000
(89030.0) X 000A0003#031200330FE20000
(89040.0) X 000A0004#FFF80003FFE74B12
(89050.0) X 000A0005#98DEE7D000000000
(89060.0) X 000A0003#031200330FE20000
(89070.0) X 000A0004#FFF80002FFE74B12
(89080.0) X 000A0002#00170B0600021E36
(89090.0) X 000A0003#031100340FE20000
(89100.0) X 000A0005#98DEE7D000000000
(89110.0) X 000A0003#031000350FE30000
(89120.0) X 000A0004#FFF90003FFE84B12
(89130.0) X 000A0005#98DEE7D000000000
(89140.0) X 000A0003#030F00370FE40000
(89150.0) X 000A0004#FFF80003FFE84B12
(89160.0) X 000A0005#98DEE7D000000000
(89170.0) X 000A0003#030E00380FE70000
(89180.0) X 000A0005#98DEE7D000000000
(89190.0) X 000A0003#030E00390FEA0000
(89200.0) X 000A0004#FFF80003FFE84B12
(89210.0) X 000A0002#00170B0600021E36
(89220.0) X 000A0003#030E00390FEC0000
(89230.0) X 000A0004#FFF80003FFE84B12
(89240.0) X 000A0005#98DEE7D000000000
(89250.0) X 000A0003#030D00390FEE0000
(89260.0) X 000A0005#98DEE7D000000000
(89270.0) X 000A0003#030E00380FEF0000
(89280.0) X 000A0004#FFF90002FFE84B12
(89290.0) X 000A0005#98DEE7D000000000
(89300.0) X 000A0003#030E00370FF00000
(89310.0) X 000A0004#FFF80002FFE84B12
(89320.0) X 000A0005#98DEE7D000000000
(89330.0) X 000A0003#030E00370FF00000
(89340.0) X 000A0005#98DEE7D000000000
(89350.0) X 000A0002#00170B0600021E36
(89360.0) X 000A0003#030E00360FF10000
(89370.0) X 000A0005#98DEE7D000000000
(89380.0) X 000A0003#030D00340FF20000
(89390.0) X 000A0004#FFF90002FFE94B12
(89400.0) X 000A0005#98DEE7D000000000
(89410.0) X 000A0003#030E00340FF30000
(89420.0) X 000A0004#FFF90003FFE94B12
(89430.0) X 000A0005#98DEE7D000000000
(89440.0) X 000A0003#031000330FF40000
(89450.0) X 000A0005#98DEE7D000000000
(89460.0) X 000A0003#031000340FF30000
(89470.0) X 000A0004#FFF70003FFE94B12
(89480.0) X 000A0002#00170B0600021E36
(89490.0) X 000A0003#031000340FF30000
(89500.0) X 000A0004#FFF70003FFE94B12
(89510.0) X 000A0005#98DEE7D000000000
(89520.0) X 000A0003#031000350FF30000
(89530.0) X 000A0005#98DEE7D000000000
(89540.0) X 000A0003#031000360FF20000
(89550.0) X 000A0004#FFF80002FFE94B12
(89560.0) X 000A0005#98DEE7D000000000
(89570.0) X 000A0003#030F00360FF20000
(89580.0) X 000A0004#FFF70003FFE84B12
(89590.0) X 000A0005#98DEE7D000000000
(89600.0) X 000A0003#030F00370FF10000
(89610.0) X 000A0005#98DEE7D000000000
(89620.0) X 000A0002#00170B0600021E36
(89630.0) X 000A0003#030F00360FF00000
(89640.0) X 000A0005#98DEE7D000000000
(89650.0) X 000A0003#030F00350FEE0000
(89660.0) X 000A0004#FFF80003FFE84B12
(89670.0) X 000A0005#98DEE7D000000000
(89680.0) X 000A0003#030F00350FED0000
(89690.0) X 000A0005#98DEE7D000000000
(89700.0) X 000A0003#031000340FEC0000
(89710.0) X 000A0004#FFF80003FFE84B12
(89720.0) X 000A0005#98DEE7D000000000
(89730.0) X 000A0003#030F00320FEA0000
(89740.0) X 000A0004#FFF80003FFE84B12
(89750.0) X 000A0002#00170B0600021E37
(89760.0) X 000A0003#030F00310FE90000
(89770.0) X 000A0004#FFF80003FFE84B12
(89780.0) X 000A0005#98DEE7D000000000
(89790.0) X 000A0003#030E00310FE80000
(89800.0) X 000A0005#98DEE91800000000
(89810.0) X 000A0003#030D00310FE70000
(89820.0) X 000A0004#FFF70003FFE84B12
(89830.0) X 000A0005#98DEE91800000000
(89840.0) X 000A0003#030C00320FE50000
(89850.0) X 000A0004#FFF60003FFE84B12
(89860.0) X 000A0005#98DEE91800000000
(89870.0) X 000A0003#030B00330FE40000
(89880.0) X 000A0000#0000000000000000
(89890.0) X 000A0002#00170B0600021E37
(89900.0) X 000A0003#030900330FE40000
(89910.0) X 000A0005#98DEE91800000000
(89920.0) X 000A0003#030600330FE50000
(89930.0) X 000A0004#FFF70003FFE94B12
(89940.0) X 000A0005#98DEE91800000000
(89950.0) X 000A0003#030500330FE50000
(89960.0) X 000A0005#98DEE91800000000
(89970.0) X 000A0003#030200320FE50000
(89980.0) X 000A0004#FFF80002FFEA4B12
(89990.0) X 000A0005#98DEE91800000000
(90000.0) X 000A0003#030000330FE50000
(90010.0) X 000A0004#FFF80002FFEA4B12
(90020.0) X 000A0002#00170B0600021E37
(90030.0) X 000A0003#02FE00320FE50000
(90040.0) X 000A0004#FFF80003FFE94B12
(90050.0) X 000A0005#98DEE91800000000
(90060.0) X 000A0003#02FE00320FE50000
(90070.0) X 000A0005#98DEE91800000000
(90080.0) X 000A0003#02FD00320FE50000
(90090.0) X 000A0004#FFF80003FFEA4B12
(90100.0) X 000A0005#98DEE91800000000
(90110.0) X 000A0003#02FC00320FE50000
(90120.0) X 000A0004#FFF80003FFEA4B12
(90130.0) X 000A0005#98DEE91800000000
(90140.0) X 000A0003#02FC00320FE50000
(90150.0) X 000A0000#0000000000000000
(90160.0) X 000A0002#00170B0600021E37
(90170.0) X 000A0003#02FC00320FE50000
(90180.0) X 000A0005#98DEE91800000000
(90190.0) X 000A0003#02FC00320FE50000
(90200.0) X 000A0004#FFF80002FFE94B12
(90210.0) X 000A0005#98DEE91800000000
(90220.0) X 000A0003#02FC00320FE50000
(90230.0) X 000A0005#98DEE91800000000
(90240.0) X 000A0003#02FB00320FE50000
(90250.0) X 000A0004#FFF80002FFE94B12
(90260.0) X 000A0005#98DEE91800000000
(90270.0) X 000A0003#02FB00330FE40000
(90280.0) X 000A0004#FFF80002FFE84B12
(90290.0) X 000A0002#00170B0600021E37
(90300.0) X 000A0003#02FB00320FE50000
(90310.0) X 000A0005#98DEE91800000000
(90320.0) X 000A0003#02FB00320FE60000
(90330.0) X 000A0004#FFF70003FFE94B12
(90340.0) X 000A0005#98DEE91800000000
(90350.0) X 000A0003#02FB00320FE70000
(90360.0) X 000A0004#FFF70003FFE94B12
(90370.0) X 000A0005#98DEE91800000000
(90380.0) X 000A0003#02FB00310FE80000
(90390.0) X 000A0004#FFF60003FFE84B12
(90400.0) X 000A0005#98DEE91800000000
(90410.0) X 000A0003#02FC00310FE90000
(90420.0) X 000A0001#0000000000000000
(90430.0) X 000A0002#00170B0600021E37
(90440.0) X 000A0003#02FE00300FE90000
(90450.0) X 000A0005#98DEE91800000000
(90460.0) X 000A0003#030000300FE90000
(90470.0) X 000A0004#FFF60004FFE84B12
(90480.0) X 000A0005#98DEE91800000000
(90490.0) X 000A0003#030200300FE90000
(90500.0) X 000A0005#98DEE91800000000
(90510.0) X 000A0003#030400310FEA0000
(90520.0) X 000A0004#FFF50003FFE84B12
(90530.0) X 000A0005#98DEE91800000000
(90540.0) X 000A0003#030500320FEB0000
(90550.0) X 000A0004#FFF50003FFE84B12
(90560.0) X 000A0002#00170B0600021E37
(90570.0) X 000A0003#030400330FED0000
(90580.0) X 000A0005#98DEE91800000000
(90590.0) X 000A0003#030400340FEE0000
(90600.0) X 000A0004#FFF50003FFE84B12
(90610.0) X 000A0005#98DEE91800000000
(90620.0) X 000A0003#030500350FF10000
(90630.0) X 000A0004#FFF50003FFE84B12
(90640.0) X 000A0005#98DEE91800000000
(90650.0) X 000A0003#030500350FF30000
(90660.0) X 000A0004#FFF50003FFE74B12
(90670.0) X 000A0005#98DEE91800000000
(90680.0) X 000A0003#030500350FF40000
(90690.0) X 000A0002#00170B0600021E37
(90700.0) X 000A0003#030500340FF50000
(90710.0) X 000A0004#FFF50003FFE84B12
(90720.0) X 000A0005#98DEE91800000000
(90730.0) X 000A0003#030500340FF50000
(90740.0) X 000A0004#FFF50003FFE84B12
(90750.0) X 000A0005#98DEE91800000000
(90760.0) X 000A0003#030500330FF50000
(90770.0) X 000A0005#98DEE91800000000
(90780.0) X 000A0003#030500330FF50000
(90790.0) X 000A0004#FFF60002FFE94B12
(90800.0) X 000A0005#98DEE91800000000
(90810.0) X 000A0003#030500320FF70000
(90820.0) X 000A0004#FFF60002FFE94B12
(90830.0) X 000A0002#00170B0600021E37
(90840.0) X 000A0003#030400320FFD0000
(90850.0) X 000A0005#98DEE91800000000
(90860.0) X 000A0003#0303003210000000
(90870.0) X 000A0004#FFF70001FFE94B12
(90880.0) X 000A0005#98DEE91800000000
(90890.0) X 000A0003#0303003310030000
(90900.0) X 000A0004#FFF70002FFE84B12
(90910.0) X 000A0005#98DEE91800000000
(90920.0) X 000A0003#0302003610050000
(90930.0) X 000A0005#98DEE91800000000
(90940.0) X 000A0003#0301003810060000
(90950.0) X 000A0004#FFF60001FFE84B12
(90960.0) X 000A0002#00170B0600021E37
(90970.0) X 000A0003#0300003A10070000
(90980.0) X 000A0004#FFF60000FFE74B12
(90990.0) X 000A0005#98DEE91800000000
(91000.0) X 000A0003#02FF003C10080000
(91010.0) X 000A0004#FFF70001FFE74B12
(91020.0) X 000A0005#98DEE91800000000
(91030.0) X 000A0003#02FF003C10090000
(91040.0) X 000A0005#98DEE91800000000
(91050.0) X 000A0003#02FD003D100C0000
(91060.0) X 000A0004#FFF70001FFE64B12
(91070.0) X 000A0005#98DEE91800000000
(91080.0) X 000A0003#02FD003E100E0000
(91090.0) X 000A0004#FFF70001FFE64B12
(91100.0) X 000A0002#00170B0600021E37
(91110.0) X 000A0003#02FE003E100F0000
(91120.0) X 000A0005#98DEE91800000000
(91130.0) X 000A0003#02FE003D100F0000
(91140.0) X 000A0004#FFF80001FFE74B12
(91150.0) X 000A0005#98DEE91800000000
(91160.0) X 000A0003#02FE003C100F0000
(91170.0) X 000A0004#FFF80001FFE74B12
(91180.0) X 000A0005#98DEE91800000000
(91190.0) X 000A0003#02FF003B100E0000
(91200.0) X 000A0005#98DEE91800000000
(91210.0) X 000A0003#0300003B100D0000
(91220.0) X 000A0004#FFF80002FFE74B12
(91230.0) X 000A0002#00170B0600021E37
(91240.0) X 000A0003#02FE003B100D0000
(91250.0) X 000A0004#FFF80002FFE64B12
(91260.0) X 000A0005#98DEE91800000000
(91270.0) X 000A0003#02FD003A100C0000
(91280.0) X 000A0004#FFF80003FFE64B12
(91290.0) X 000A0005#9A26E91800000000
(91300.0) X 000A0003#02FE003A100B0000
(91310.0) X 000A0005#9A26E91800000000
(91320.0) X 000A0003#02FF0039100A0000
(91330.0) X 000A0004#FFF80002FFE64B12
(91340.0) X 000A0005#9A26E91800000000
(91350.0) X 000A0003#02FE003B10080000
(91360.0) X 000A0004#FFF80004FFE64B12
(91370.0) X 000A0002#00170B0600021E37
(91380.0) X 000A0003#02FE003C10070000
(91390.0) X 000A0005#9A26E91800000000
(91400.0) X 000A0003#02FD003D10060000
(91410.0) X 000A0004#FFF70003FFE64B12
(91420.0) X 000A0005#9A26E91800000000
(91430.0) X 000A0003#02FC003E10050000
(91440.0) X 000A0004#FFF70002FFE64B12
(91450.0) X 000A0005#9A26E91800000000
(91460.0) X 000A0003#02FC003F10020000
(91470.0) X 000A0005#9A26E91800000000
(91480.0) X 000A0003#02FD003F10000000
(91490.0) X 000A0004#FFF70002FFE74B12
(91500.0) X 000A0002#00170B0600021E37
(91510.0) X 000A0003#02FE003F0FFF0000
(91520.0) X 000A0004#FFF70001FFE64B12
(91530.0) X 000A0005#9A26E91800000000
(91540.0) X 000A0003#02FF003F0FFD0000
(91550.0) X 000A0005#9A26E91800000000
(91560.0) X 000A0003#02FF003F0FFD0000
(91570.0) X 000A0004#FFF40003FFE54B12
(91580.0) X 000A0005#9A26E91800000000
(91590.0) X 000A0003#03000041100C0000
(91600.0) X 000A0004#FFD9FFD8FFAC4B12
(91610.0) X 000A0005#9A26E91800000000
(91620.0) X 000A0003#02FF004B103A0000
(91630.0) X 000A0004#FFBEFF8CFF664B12
(91640.0) X 000A0002#00170B0600021E37
(91650.0) X 000A0003#02FB0043105D0000
(91660.0) X 000A0005#9A26E91800000000
(91670.0) X 000A0003#02EF002510980000
(91680.0) X 000A0004#FFA7FF7DFEA04B12
(91690.0) X 000A0005#9A26E91800000000
(91700.0) X 000A0003#02E0000E10E80000
(91710.0) X 000A0004#FFA1FF78FE194B12
(91720.0) X 000A0005#9A26E91800000000
(91730.0) X 000A0003#02D10002113F0000
(91740.0) X 000A0005#9A26E91800000000
(91750.0) X 000A0003#02C8001011760000
(91760.0) X 000A0004#FF7EFF7EFCDB4B12
(91770.0) X 000A0002#00170B0600021E37
(91780.0) X 000A0003#02BC004211C70000
(91790.0) X 000A0004#FF93FF64FC5A4B12
(91800.0) X 000A0005#9A26E91800000000
(91810.0) X 000A0003#02B9006A11FC0000
(91820.0) X 000A0005#9A26E91800000000
(91830.0) X 000A0003#02BB008012160000
(91840.0) X 000A0004#FF96FF63FC054B12
(91850.0) X 000A0005#9A26E91800000000
(91860.0) X 000A0003#02BF009612290000
(91870.0) X 000A0004#FFA8FF75FC184B12
(91880.0) X 000A0005#9A26E91800000000
(91890.0) X 000A0003#02C300A412320000
(91900.0) X 000A0005#9A26E91800000000
(91910.0) X 000A0002#00170B0600021E37
(91920.0) X 000A0003#02C500AB122F0000
(91930.0) X 000A0005#9A26E91800000000
(91940.0) X 000A0003#02C800B1122A0000
(91950.0) X 000A0004#FFD8FF9CFC334B12
(91960.0) X 000A0005#9A26E91800000000
(91970.0) X 000A0003#02CC00B4121B0000
(91980.0) X 000A0004#FFEDFFA8FC264B12
(91990.0) X 000A0005#9A26E91800000000
(92000.0) X 000A0003#02D200B5120D0000
(92010.0) X 000A0005#9A26E91800000000
(92020.0) X 000A0003#02D800B611F90000
(92030.0) X 000A0004#0039FFD4FBBE4B12
(92040.0) X 000A0002#00170B0600021E37
(92050.0) X 000A0003#02E100B711DC0000
(92060.0) X 000A0004#00530000FB444B12
(92070.0) X 000A0005#9A26E91800000000
(92080.0) X 000A0003#02DD00AA11E10000
(92090.0) X 000A0005#9A26E91800000000
(92100.0) X 000A0003#02DA00A111E40000
(92110.0) X 000A0004#006D0041FA2B4B12
(92120.0) X 000A0005#9A26E91800000000
(92130.0) X 000A0003#02DB009A11CD0000
(92140.0) X 000A0004#00420070F96E4B12
(92150.0) X 000A0005#9A26E91800000000
(92160.0) X 000A0003#02DB008F11C60000
(92170.0) X 000A0005#9A26E91800000000
(92180.0) X 000A0002#00170B0600021E37
(92190.0) X 000A0003#02E6009911DC0000
(92200.0) X 000A0005#9A26E91800000000
(92210.0) X 000A0003#02ED009F11EA0000
(92220.0) X 000A0004#FEFA0164F7D64B12
(92230.0) X 000A0005#9A26E91800000000
(92240.0) X 000A0003#02F8009C11FC0000
(92250.0) X 000A0004#FE3D01EBF75D4B12
(92260.0) X 000A0005#9A26E91800000000
(92270.0) X 000A0003#02FB008E12520000
(92280.0) X 000A0005#9A26E91800000000
(92290.0) X 000A0003#02F2007512E50000
(92300.0) X 000A0004#FC9E0242F5B04B12
(92310.0) X 000A0002#00170B0600021E37
(92320.0) X 000A0003#02EF0065138F0000
(92330.0) X 000A0004#FBA1024CF4C54B12
(92340.0) X 000A0005#9A26E91800000000
(92350.0) X 000A0003#0300007A13E30000
(92360.0) X 000A0005#9A26E91800000000
(92370.0) X 000A0003#0306008713FE0000
(92380.0) X 000A0004#FA730272F4864B12
(92390.0) X 000A0005#9A26E91800000000
(92400.0) X 000A0003#030800A114000000
(92410.0) X 000A0004#FA160286F4AA4B12
(92420.0) X 000A0005#9A26E91800000000
(92430.0) X 000A0003#030700B813FB0000
(92440.0) X 000A0005#9A26E91800000000
(92450.0) X 000A0002#00170B0600021E38
(92460.0) X 000A0003#030100CD13EB0000
(92470.0) X 000A0005#9A26E91800000000
(92480.0) X 000A0003#02FD00DC13DD0000
(92490.0) X 000A0004#F929021DF51A4B12
(92500.0) X 000A0005#9A26E91800000000
(92510.0) X 000A0003#02F900F513C20000
(92520.0) X 000A0005#9A26E91800000000
(92530.0) X 000A0003#0300010B13A50000
(92540.0) X 000A0004#F87F014EF5D14B12
(92550.0) X 000A0005#9A26E91800000000
(92560.0) X 000A0003#0309011713910000
(92570.0) X 000A0004#F8A80112F6154B12
(92580.0) X 000A0002#00170B0600021E38
(92590.0) X 000A0003#0316012813740000
(92600.0) X 000A0004#F90100AAF6904B12
(92610.0) X 000A0005#9A26E91800000000
(92620.0) X 000A0003#0323013513590000
(92630.0) X 000A0005#9A26E91800000000
(92640.0) X 000A0003#03300139133D0000
(92650.0) X 000A0004#F97E000CF7404B12
(92660.0) X 000A0005#9A26E91800000000
(92670.0) X 000A0003#0347013813140000
(92680.0) X 000A0004#F9B7FFEDF7684B12
(92690.0) X 000A0005#9A26E91800000000
(92700.0) X 000A0003#035C013E12EC0000
(92710.0) X 000A0000#0000000000000000
(92720.0) X 000A0002#00170B0600021E38
(92730.0) X 000A0003#036F014812C60000
(92740.0) X 000A0005#9A26E91800000000
(92750.0) X 000A0003#0370015812B10000
(92760.0) X 000A0004#F9FC0011F7F84B12
(92770.0) X 000A0005#9A26E91800000000
(92780.0) X 000A0003#0371017012930000
(92790.0) X 000A0005#9A26E91800000000
(92800.0) X 000A0003#03710191127D0000
(92810.0) X 000A0004#FA31001DF88A4B12
(92820.0) X 000A0005#9A26E91800000000
(92830.0) X 000A0003#037201A6126F0000
(92840.0) X 000A0004#FA530007F8D14B12
(92850.0) X 000A0002#00170B0600021E38
(92860.0) X 000A0003#038701B5124C0000
(92870.0) X 000A0004#FA6E0004F9244B12
(92880.0) X 000A0005#9A26E91800000000
(92890.0) X 000A0003#03A601BD122B0000
(92900.0) X 000A0005#9A26E91800000000
(92910.0) X 000A0003#03B201CD121E0000
(92920.0) X 000A0004#FA4C0033F9984B12
(92930.0) X 000A0005#9A26E91800000000
(92940.0) X 000A0003#03C401E3120C0000
(92950.0) X 000A0004#FA500062F9FB4B12
(92960.0) X 000A0005#9A26E91800000000
(92970.0) X 000A0003#03D601F711FD0000
(92980.0) X 000A0000#0000000000000000
(92990.0) X 000A0002#00170B0600021E38
(93000.0) X 000A0003#03E9020811F10000
(93010.0) X 000A0005#9A26E91800000000
(93020.0) X 000A0003#03F5021211EC0000
(93030.0) X 000A0004#FAAE00F2FAF34B12
(93040.0) X 000A0005#9A26E91800000000
(93050.0) X 000A0003#040A022011E60000
(93060.0) X 000A0005#9A26E91800000000
(93070.0) X 000A0003#0422021B11E30000
(93080.0) X 000A0004#FB1F0163FB8D4B12
(93090.0) X 000A0005#9A26E91800000000
(93100.0) X 000A0003#0431021811E00000
(93110.0) X 000A0004#FB3D0183FBB34B12
(93120.0) X 000A0002#00170B0600021E38
(93130.0) X 000A0003#0439021511CE0000
(93140.0) X 000A0005#9A26E91800000000
(93150.0) X 000A0003#043F021311C00000
(93160.0) X 000A0004#FBDB01A9FC484B12
(93170.0) X 000A0005#9A26E91800000000
(93180.0) X 000A0003#0441021011B90000
(93190.0) X 000A0004#FC300195FCA24B12
(93200.0) X 000A0005#9A26E91800000000
(93210.0) X 000A0003#043F020C11B20000
(93220.0) X 000A0004#FC660185FCC74B12
(93230.0) X 000A0005#9A26EA6000000000
(93240.0) X 000A0003#0439020311A50000
(93250.0) X 000A0001#0000000000000000
(93260.0) X 000A0002#00170B0600021E38
(93270.0) X 000A0003#042F01FC119F0000
(93280.0) X 000A0005#9A26EA6000000000
(93290.0) X 000A0003#042801F9119C0000
(93300.0) X 000A0004#FD710114FD754B12
(93310.0) X 000A0005#9A26EA6000000000
(93320.0) X 000A0003#041D01F311930000
(93330.0) X 000A0005#9A26EA6000000000
(93340.0) X 000A0003#041101EA118B0000
(93350.0) X 000A0004#FE750081FE044B12
(93360.0) X 000A0005#9A26EA6000000000
(93370.0) X 000A0003#040A01E111860000
(93380.0) X 000A0004#FEE00056FE294B12
(93390.0) X 000A0002#00170B0600021E38
(93400.0) X 000A0003#03FF01D1117D0000
(93410.0) X 000A0005#9A26EA6000000000
(93420.0) X 000A0003#03F501BF11750000
(93430.0) X 000A0004#005CFFE5FE4A4B12
(93440.0) X 000A0005#9A26EA6000000000
(93450.0) X 000A0003#03EF01B211700000
(93460.0) X 000A0004#00EDFFC2FE424B12
(93470.0) X 000A0005#9A26EA6000000000
(93480.0) X 000A0003#03E20194116D0000
(93490.0) X 000A0004#01AFFF7CFE294B12
(93500.0) X 000A0005#9A26EA6000000000
(93510.0) X 000A0003#03D20173116D0000
(93520.0) X 000A0002#00170B0600021E38
(93530.0) X 000A0003#03BB014B116E0000
(93540.0) X 000A0004#02D3FE8AFD924B12
(93550.0) X 000A0005#9A26EA6000000000
(93560.0) X 000A0003#03AC012F116F0000
(93570.0) X 000A0004#0349FE26FD4E4B12
(93580.0) X 000A0005#9A26EA6000000000
(93590.0) X 000A0003#03990100116A0000
(93600.0) X 000A0005#9A26EA6000000000
(93610.0) X 000A0003#038800CF11620000
(93620.0) X 000A0004#0505FD2FFC6F4B12
(93630.0) X 000A0005#9A26EA6000000000
(93640.0) X 000A0003#037E00AD11530000
(93650.0) X 000A0004#059FFCF4FC264B12
(93660.0) X 000A0002#00170B0600021E38
(93670.0) X 000A0003#0370007B113E0000
(93680.0) X 000A0005#9A26EA6000000000
(93690.0) X 000A0003#0359002D113A0000
(93700.0) X 000A0004#080BFC11FAE14B12
(93710.0) X 000A0005#9A26EA6000000000
(93720.0) X 000A0003#034BFFFB11370000
(93730.0) X 000A0004#08DAFBAAFA3D4B12
(93740.0) X 000A0005#9A26EA6000000000
(93750.0) X 000A0003#032AFFA811380000
(93760.0) X 000A0005#9A26EA6000000000
(93770.0) X 000A0003#030AFF5311380000
(93780.0) X 000A0004#0B41F9FDF7E14B12
(93790.0) X 000A0002#00170B0600021E38
(93800.0) X 000A0003#02E0FF04113A0000
(93810.0) X 000A0004#0C6EF8F0F6864B12
(93820.0) X 000A0005#9B6FEA6000000000
(93830.0) X 000A0003#02C5FED0113C0000
(93840.0) X 000A0004#0D2CF835F5A44B12
(93850.0) X 000A0005#9B6FEA6000000000
(93860.0) X 000A0003#0291FE9711260000
(93870.0) X 000A0005#9B6FEA6000000000
(93880.0) X 000A0003#025DFE5F11060000
(93890.0) X 000A0004#0EF7F61DF3404B12
(93900.0) X 000A0005#9B6FEA6000000000
(93910.0) X 000A0003#023AFE3A10E30000
(93920.0) X 000A0004#0F73F5C2F28B4B12
(93930.0) X 000A0002#00170B0600021E38
(93940.0) X 000A0003#0207FE0510B00000
(93950.0) X 000A0005#9B6FEA6000000000
(93960.0) X 000A0003#01D8FDD4107E0000
(93970.0) X 000A0004#10A8F52DF0B84B12
(93980.0) X 000A0005#9B6FEA6000000000
(93990.0) X 000A0003#01BAFDB4105B0000
(94000.0) X 000A0004#110CF517F0414B12
(94010.0) X 000A0005#9B6FEA6000000000
(94020.0) X 000A0003#0198FD8A10240000
(94030.0) X 000A0005#9B6FEA6000000000
(94040.0) X 000A0003#017CFD600FEE0000
(94050.0) X 000A0004#11C9F52BEF174B12
(94060.0) X 000A0002#00170B0600021E38
(94070.0) X 000A0003#016BFD360FB60000
(94080.0) X 000A0004#120CF564EEA64B12
(94090.0) X 000A0005#9B6FEA6000000000
(94100.0) X 000A0003#0160FD150F930000
(94110.0) X 000A0004#1245F58CEE6A4B12
(94120.0) X 000A0005#9B6FEA6000000000
(94130.0) X 000A0003#0151FCDE0F610000
(94140.0) X 000A0005#9B6FEA6000000000
(94150.0) X 000A0003#0144FCA80F390000
(94160.0) X 000A0004#12E7F631ED744B12
(94170.0) X 000A0005#9B6FEA6000000000
(94180.0) X 000A0003#013DFC850F220000
(94190.0) X 000A0004#131CF65AED164B12
(94200.0) X 000A0002#00170B0600021E38
(94210.0) X 000A0003#0131FC520F030000
(94220.0) X 000A0005#9B6FEA6000000000
(94230.0) X 000A0003#0123FC1F0EE70000
(94240.0) X 000A0004#1394F6A3EBCC4B12
(94250.0) X 000A0005#9B6FEA6000000000
(94260.0) X 000A0003#0115FC020ED30000
(94270.0) X 000A0004#13ACF6BAEB6D4B12
(94280.0) X 000A0005#9B6FEA6000000000
(94290.0) X 000A0003#00F7FBDF0EB20000
(94300.0) X 000A0005#9B6FEA6000000000
(94310.0) X 000A0003#00D4FBBF0E8D0000
(94320.0) X 000A0004#13B5F741EA964B12
(94330.0) X 000A0002#00170B0600021E38
(94340.0) X 000A0003#00AEFBA20E670000
(94350.0) X 000A0004#13C7F7B6EA4F4B12
(94360.0) X 000A0005#9B6FEA6000000000
(94370.0) X 000A0003#0097FB860E490000
(94380.0) X 000A0005#9B6FEA6000000000
(94390.0) X 000A0003#0076FB5D0E1D0000
(94400.0) X 000A0004#1420F8CBE9DE4B12
(94410.0) X 000A0005#9B6FEA6000000000
(94420.0) X 000A0003#0059FB2E0DF10000
(94430.0) X 000A0004#1491F9A7E98B4B12
(94440.0) X 000A0005#9B6FEA6000000000
(94450.0) X 000A0003#0047FB0D0DD40000
(94460.0) X 000A0004#14EEFA4AE94F4B12
(94470.0) X 000A0002#00170B0600021E38
(94480.0) X 000A0003#002CFADF0DAD0000
(94490.0) X 000A0005#9B6FEA6000000000
(94500.0) X 000A0003#0013FAB20D8A0000
(94510.0) X 000A0004#15E4FC6CE8944B12
(94520.0) X 000A0005#9B6FEA6000000000
(94530.0) X 000A0003#FFFDFA9F0D790000
(94540.0) X 000A0004#15FFFD25E8584B12
(94550.0) X 000A0005#9B6FEA6000000000
(94560.0) X 000A0003#FFDEFA830D610000
(94570.0) X 000A0005#9B6FEA6000000000
(94580.0) X 000A0003#FFB9FA760D590000
(94590.0) X 000A0004#15BBFEF5E7A94B12
(94600.0) X 000A0002#00170B0600021E38
(94610.0) X 000A0003#FF8FFA6B0D510000
(94620.0) X 000A0004#15ACFFBAE7524B12
(94630.0) X 000A0005#9B6FEA6000000000
(94640.0) X 000A0003#FF6CFA650D4C0000
(94650.0) X 000A0005#9B6FEA6000000000
(94660.0) X 000A0003#FF39FA5C0D420000
(94670.0) X 000A0004#156400B7E6D94B12
(94680.0) X 000A0005#9B6FEA6000000000
(94690.0) X 000A0003#FEFFFA510D320000
(94700.0) X 000A0004#151E0149E6A04B12
(94710.0) X 000A0005#9B6FEA6000000000
(94720.0) X 000A0003#FEDAFA490D270000
(94730.0) X 000A0004#14E601BAE6824B12
(94740.0) X 000A0002#00170B0600021E38
(94750.0) X 000A0003#FEACFA320CFE0000
(94760.0) X 000A0005#9B6FEA6000000000
(94770.0) X 000A0003#FE85FA170CD20000
(94780.0) X 000A0004#142503DBE6574B12
(94790.0) X 000A0005#9B6FEA6000000000
(94800.0) X 000A0003#FE73F9FF0CB00000
(94810.0) X 000A0004#139804C0E65F4B12
(94820.0) X 000A0005#9B6FEA6000000000
(94830.0) X 000A0003#FE5CF9D70C860000
(94840.0) X 000A0005#9B6FEA6000000000
(94850.0) X 000A0003#FE4EF9A70C6E0000
(94860.0) X 000A0004#114E0745E68E4B12
(94870.0) X 000A0002#00170B0600021E38
(94880.0) X 000A0003#FE52F9720C690000
(94890.0) X 000A0004#1000085EE68F4B12
(94900.0) X 000A0005#9B6FEA6000000000
(94910.0) X 000A0003#FE5AF9460C6C0000
(94920.0) X 000A0005#9B6FEA6000000000
(94930.0) X 000A0003#FE62F9000C7B0000
(94940.0) X 000A0004#0E6A0979E6364B12
(94950.0) X 000A0005#9B6FEA6000000000
(94960.0) X 000A0003#FE64F8B20C9F0000
(94970.0) X 000A0004#0DB709D3E5BD4B12
(94980.0) X 000A0005#9B6FEA6000000000
(94990.0) X 000A0003#FE67F8820CB90000
(95000.0) X 000A0005#9B6FEA6000000000
(95010.0) X 000A0002#00170B0600021E39
(95020.0) X 000A0003#FE6DF8430CE50000
(95030.0) X 000A0005#9B6FEA6000000000
(95040.0) X 000A0003#FE67F81F0D0D0000
(95050.0) X 000A0004#0AF10A43E3564B12
(95060.0) X 000A0005#9B6FEA6000000000
(95070.0) X 000A0003#FE5FF8100D270000
(95080.0) X 000A0004#0A260A42E2CA4B12
(95090.0) X 000A0005#9B6FEA6000000000
(95100.0) X 000A0003#FE53F8080D510000
(95110.0) X 000A0005#9B6FEA6000000000
(95120.0) X 000A0003#FE48F81E0D7B0000
(95130.0) X 000A0004#082309E2E21D4B12
(95140.0) X 000A0002#00170B0600021E39
(95150.0) X 000A0003#FE38F83C0DA60000
(95160.0) X 000A0004#0762098FE23D4B12
(95170.0) X 000A0005#9B6FEA6000000000
(95180.0) X 000A0003#FE2CF8530DC20000
(95190.0) X 000A0005#9B6FEA6000000000
(95200.0) X 000A0003#FE0FF8720DE50000
(95210.0) X 000A0004#061708EEE2C64B12
(95220.0) X 000A0005#9B6FEA6000000000
(95230.0) X 000A0003#FDEEF8900E050000
(95240.0) X 000A0004#0522088EE3424B12
(95250.0) X 000A0005#9B6FEA6000000000
(95260.0) X 000A0003#FDD8F89C0E150000
(95270.0) X 000A0005#9B6FEA6000000000
(95280.0) X 000A0002#00170B0600021E39
(95290.0) X 000A0003#FDBAF8AE0E2D0000
(95300.0) X 000A0005#9B6FEA6000000000
(95310.0) X 000A0003#FDA6F8C30E3B0000
(95320.0) X 000A0004#018007BCE4E44B12
(95330.0) X 000A0005#9B6FEA6000000000
(95340.0) X 000A0003#FD99F8D00E440000
(95350.0) X 000A0004#009D07A6E5634B12
(95360.0) X 000A0005#9B6FEA6000000000
(95370.0) X 000A0003#FD8DF8F80E4E0000
(95380.0) X 000A0005#9B6FEA6000000000
(95390.0) X 000A0003#FD84F92A0E580000
(95400.0) X 000A0004#FE6307D4E76A4B12
(95410.0) X 000A0002#00170B0600021E39
(95420.0) X 000A0003#FD80F96B0E610000
(95430.0) X 000A0004#FD5F0802E8AF4B12
(95440.0) X 000A0005#9B6FEA6000000000
(95450.0) X 000A0003#FD7DF9950E660000
(95460.0) X 000A0005#9B6FEA6000000000
(95470.0) X 000A0003#FD83F9DB0E840000
(95480.0) X 000A0004#FC120851EAA44B12
(95490.0) X 000A0005#9B6FEA6000000000
(95500.0) X 000A0003#FD86FA250EA80000
(95510.0) X 000A0004#FB97086EEBAF4B12
(95520.0) X 000A0005#9B6FEA6000000000
(95530.0) X 000A0003#FD85FA5F0ECA0000
(95540.0) X 000A0005#9B6FEA6000000000
(95550.0) X 000A0002#00170B0600021E39
(95560.0) X 000A0003#FD89FAB30EFD0000
(95570.0) X 000A0005#9B6FEA6000000000
(95580.0) X 000A0003#FD9AFAFC0F360000
(95590.0) X 000A0004#FB990738EF6C4B12
(95600.0) X 000A0005#9B6FEA6000000000
(95610.0) X 000A0003#FDA5FB2A0F5A0000
(95620.0) X 000A0005#9B6FEA6000000000
(95630.0) X 000A0003#FDB0FB5B0F830000
(95640.0) X 000A0004#FBE205B4F1904B12
(95650.0) X 000A0005#9B6FEA6000000000
(95660.0) X 000A0003#FDB4FB8A0FA20000
(95670.0) X 000A0004#FBA604C6F2B04B12
(95680.0) X 000A0002#00170B0600021E39
(95690.0) X 000A0003#FDAFFBB70FB10000
(95700.0) X 000A0004#FB6103DFF3B74B12
(95710.0) X 000A0005#9B6FEA6000000000
(95720.0) X 000A0003#FDA8FBDA0FBA0000
(95730.0) X 000A0005#9B6FEA6000000000
(95740.0) X 000A0003#FD9BFC140FC50000
(95750.0) X 000A0004#FB610223F56C4B12
(95760.0) X 000A0005#9B6FEA6000000000
(95770.0) X 000A0003#FD87FC4C0FD00000
(95780.0) X 000A0004#FB8500E9F6774B12
(95790.0) X 000A0005#9B6FEA6000000000
(95800.0) X 000A0003#FD77FC6F0FD60000
(95810.0) X 000A0000#0000000000000000
(95820.0) X 000A0002#00170B0600021E39
(95830.0) X 000A0003#FD59FCA00FDD0000
(95840.0) X 000A0005#9B6FEA6000000000
(95850.0) X 000A0003#FD2FFCCD0FE20000
(95860.0) X 000A0004#FB36FDB8F88D4B12
(95870.0) X 000A0005#9B6FEA6000000000
(95880.0) X 000A0003#FD13FCEF0FDF0000
(95890.0) X 000A0005#9B6FEA6000000000
(95900.0) X 000A0003#FCEAFD260FD30000
(95910.0) X 000A0004#FB13FBAAFA444B12
(95920.0) X 000A0005#9B6FEA6000000000
(95930.0) X 000A0003#FCBFFD520FB00000
(95940.0) X 000A0004#FB48FA94FB734B12
(95950.0) X 000A0002#00170B0600021E39
(95960.0) X 000A0003#FC94FD770F840000
(95970.0) X 000A0004#FB62F9C8FC804B12
(95980.0) X 000A0005#9B6FEA6000000000
(95990.0) X 000A0003#FC70FD860F680000
(96000.0) X 000A0005#9B6FEA6000000000
(96010.0) X 000A0003#FC3CFD9A0F400000
(96020.0) X 000A0004#FAF7F8D5FDC04B12
(96030.0) X 000A0005#9B6FEA6000000000
(96040.0) X 000A0003#FC0DFDAA0F2C0000
(96050.0) X 000A0004#FAA2F85DFE524B12
(96060.0) X 000A0005#9B6FEA6000000000
(96070.0) X 000A0003#FBF0FDB40F1F0000
(96080.0) X 000A0000#0000000000000000
(96090.0) X 000A0002#00170B0600021E39
(96100.0) X 000A0003#FBA5FDE60F1D0000
(96110.0) X 000A0005#9B6FEA6000000000
(96120.0) X 000A0003#FB4EFE290F230000
(96130.0) X 000A0004#FB0EF5C9FEBF4B12
(96140.0) X 000A0005#9B6FEA6000000000
(96150.0) X 000A0003#FB2CFE020ED20000
(96160.0) X 000A0005#9B6FEA6000000000
(96170.0) X 000A0003#FB16FDE90E9E0000
(96180.0) X 000A0004#FC75F5AA003B4B12
(96190.0) X 000A0005#9B6FEA6000000000
(96200.0) X 000A0003#FAD2FDE20E5F0000
(96210.0) X 000A0004#FC09F5C900294B12
(96220.0) X 000A0002#00170B0600021E39
(96230.0) X 000A0003#FA86FDDA0E190000
(96240.0) X 000A0005#9B6FEA6000000000
(96250.0) X 000A0003#FA4DFDEB0DDE0000
(96260.0) X 000A0004#FC1BF66300904B12
(96270.0) X 000A0005#9B6FEA6000000000
(96280.0) X 000A0003#F9FAFE040D890000
(96290.0) X 000A0004#FBCFF6E8013A4B12
(96300.0) X 000A0005#9B6FEA6000000000
(96310.0) X 000A0003#F9CAFE100D480000
(96320.0) X 000A0004#FB79F76701F64B12
(96330.0) X 000A0005#9CB7EA6000000000
(96340.0) X 000A0003#F9ABFE180D1F0000
(96350.0) X 000A0001#0000000000000000
(96360.0) X 000A0002#00170B0600021E39
(96370.0) X 000A0003#F98AFE050CF30000
(96380.0) X 000A0005#9CB7EA6000000000
(96390.0) X 000A0003#F965FDEB0CCD0000
(96400.0) X 000A0004#FAC8F8B703FD4B12
(96410.0) X 000A0005#9CB7EA6000000000
(96420.0) X 000A0003#F936FDBE0CB10000
(96430.0) X 000A0005#9CB7EA6000000000
(96440.0) X 000A0003#F91AFDA20CA10000
(96450.0) X 000A0004#FA10F97004CC4B12
(96460.0) X 000A0005#9CB7EA6000000000
(96470.0) X 000A0003#F8F2FD790C8B0000
(96480.0) X 000A0004#F980F9E1051C4B12
(96490.0) X 000A0002#00170B0600021E39
(96500.0) X 000A0003#F8D1FD590C760000
(96510.0) X 000A0005#9CB7EA6000000000
(96520.0) X 000A0003#F8C0FD4D0C690000
(96530.0) X 000A0004#F82FFA94057B4B12
(96540.0) X 000A0005#9CB7EA6000000000
(96550.0) X 000A0003#F8A8FD480C510000
(96560.0) X 000A0004#F718FB1605B74B12
(96570.0) X 000A0005#9CB7EA6000000000
(96580.0) X 000A0003#F890FD5E0C2E0000
(96590.0) X 000A0004#F5D6FBD2063F4B12
(96600.0) X 000A0005#9CB7EA6000000000
(96610.0) X 000A0003#F87EFD680C190000
(96620.0) X 000A0001#0000000000000000
(96630.0) X 000A0002#00170B0600021E39
(96640.0) X 000A0003#F861FD6F0BFA0000
(96650.0) X 000A0005#9CB7EA6000000000
(96660.0) X 000A0003#F846FD6A0BED0000
(96670.0) X 000A0004#F2CFFE58082B4B12
(96680.0) X 000A0005#9CB7EA6000000000
(96690.0) X 000A0003#F82DFD600BE90000
(96700.0) X 000A0005#9CB7EA6000000000
(96710.0) X 000A0003#F820FD5D0BEC0000
(96720.0) X 000A0004#F041FFB4091E4B12
(96730.0) X 000A0005#9CB7EA6000000000
(96740.0) X 000A0003#F813FD5E0BF00000
(96750.0) X 000A0004#EE92008409D64B12
(96760.0) X 000A0002#00170B0600021E39
(96770.0) X 000A0003#F80FFD720BE70000
(96780.0) X 000A0005#9CB7EBA800000000
(96790.0) X 000A0003#F80EFD850BDC0000
(96800.0) X 000A0004#EBCF02960B784B12
(96810.0) X 000A0005#9CB7EBA800000000
(96820.0) X 000A0003#F809FDA00BDD0000
(96830.0) X 000A0004#EAA704440CB04B12
(96840.0) X 000A0005#9CB7EBA800000000
(96850.0) X 000A0003#F802FDB90BE50000
(96860.0) X 000A0005#9CB7EBA800000000
(96870.0) X 000A0003#F7F9FDA70C430000
(96880.0) X 000A0004#EA5606150E8A4B12
(96890.0) X 000A0002#00170B0600021E39
(96900.0) X 000A0003#F7EDFD8D0CCC0000
(96910.0) X 000A0004#EB3D05740F1F4B12
(96920.0) X 000A0005#9CB7EBA800000000
(96930.0) X 000A0003#F7D6FD5F0D9A0000
(96940.0) X 000A0004#EC9903A30F354B12
(96950.0) X 000A0005#9CB7EBA800000000
(96960.0) X 000A0003#F7BFFD2A0E5F0000
(96970.0) X 000A0005#9CB7EBA800000000
(96980.0) X 000A0003#F7BCFD0C0EBD0000
(96990.0) X 000A0004#EEE6FEBE0E874B12
(97000.0) X 000A0005#9CB7EBA800000000
(97010.0) X 000A0003#F7B8FCE20F430000
(97020.0) X 000A0004#F003FBD60DF54B12
(97030.0) X 000A0002#00170B0600021E39
(97040.0) X 000A0003#F7C9FCBC0F560000
(97050.0) X 000A0005#9CB7EBA800000000
(97060.0) X 000A0003#F7D4FCA40F620000
(97070.0) X 000A0004#F1D3F8A00CAE4B12
(97080.0) X 000A0005#9CB7EBA800000000
(97090.0) X 000A0003#F7F1FCA00F430000
(97100.0) X 000A0004#F306F7710BEF4B12
(97110.0) X 000A0005#9CB7EBA800000000
(97120.0) X 000A0003#F80DFC9C0F200000
(97130.0) X 000A0005#9CB7EBA800000000
(97140.0) X 000A0003#F81FFCAF0F040000
(97150.0) X 000A0004#F575F60E0ADF4B12
(97160.0) X 000A0002#00170B0600021E39
(97170.0) X 000A0003#F839FCCB0EE00000
(97180.0) X 000A0004#F740F5570A564B12
(97190.0) X 000A0005#9CB7EBA800000000
(97200.0) X 000A0003#F849FCEC0EC60000
(97210.0) X 000A0004#F938F46709DC4B12
(97220.0) X 000A0005#9CB7EBA800000000
(97230.0) X 000A0003#F854FD060EB10000
(97240.0) X 000A0005#9CB7EBA800000000
(97250.0) X 000A0003#F857FD100EA60000
(97260.0) X 000A0004#FCFAF20408EF4B12
(97270.0) X 000A0005#9CB7EBA800000000
(97280.0) X 000A0003#F858FD210E8E0000
(97290.0) X 000A0004#FF99F03408564B12
(97300.0) X 000A0002#00170B0600021E39
(97310.0) X 000A0003#F851FD330E650000
(97320.0) X 000A0005#9CB7EBA800000000
(97330.0) X 000A0003#F845FD3E0E2E0000
(97340.0) X 000A0004#045CED74076C4B12
(97350.0) X 000A0005#9CB7EBA800000000
(97360.0) X 000A0003#F82AFD4E0DB20000
(97370.0) X 000A0004#06F6ECA106F94B12
(97380.0) X 000A0005#9CB7EBA800000000
(97390.0) X 000A0003#F80BFD540D2A0000
(97400.0) X 000A0005#9CB7EBA800000000
(97410.0) X 000A0003#F7EFFD4C0CCC0000
(97420.0) X 000A0004#0ABEEC95061E4B12
(97430.0) X 000A0002#00170B0600021E39
(97440.0) X 000A0003#F7C4FD3C0C540000
(97450.0) X 000A0004#0CC7ECBF05794B12
(97460.0) X 000A0005#9CB7EBA800000000
(97470.0) X 000A0003#F794FD240BFE0000
(97480.0) X 000A0005#9CB7EBA800000000
(97490.0) X 000A0003#F759FD190BB30000
(97500.0) X 000A0004#101FEC3304294B12
(97510.0) X 000A0005#9CB7EBA800000000
(97520.0) X 000A0003#F72EFD170B860000
(97530.0) X 000A0004#1126EBD803D64B12
(97540.0) X 000A0005#9CB7EBA800000000
(97550.0) X 000A0003#F6EDFD120B390000
(97560.0) X 000A0004#12BAEB6403864B12
(97570.0) X 000A0002#00170B0600021E39
(97580.0) X 000A0003#F6ADFD0C0AEA0000
(97590.0) X 000A0005#9CB7EBA800000000
(97600.0) X 000A0003#F685FCFF0AA00000
(97610.0) X 000A0004#1546EB2903504B12
(97620.0) X 000A0005#9CB7EBA800000000
(97630.0) X 000A0003#F64CFCE10A350000
(97640.0) X 000A0004#1692EB7203294B12
(97650.0) X 000A0005#9CB7EBA800000000
(97660.0) X 000A0003#F61AFCBB09C60000
(97670.0) X 000A0005#9CB7EBA800000000
(97680.0) X 000A0003#F5FCFC9F097D0000
(97690.0) X 000A0004#1817EC58029F4B12
(97700.0) X 000A0002#00170B0600021E3A
(97710.0) X 000A0003#F5C9FC8509120000
(97720.0) X 000A0004#18B6ED0402414B12
(97730.0) X 000A0005#9CB7EBA800000000
(97740.0) X 000A0003#F593FC7408AC0000
(97750.0) X 000A0005#9CB7EBA800000000
(97760.0) X 000A0003#F558FC75084B0000
(97770.0) X 000A0004#19BFEE5D01F34B12
(97780.0) X 000A0005#9CB7EBA800000000
(97790.0) X 000A0003#F532FC76080D0000
(97800.0) X 000A0004#1A2DEED502154B12
(97810.0) X 000A0005#9CB7EBA800000000
(97820.0) X 000A0003#F4E6FC8007AC0000
(97830.0) X 000A0004#1AB2EF8302944B12
(97840.0) X 000A0002#00170B0600021E3A
(97850.0) X 000A0003#F49DFC8E074A0000
(97860.0) X 000A0005#9CB7EBA800000000
(97870.0) X 000A0003#F469FC8B07060000
(97880.0) X 000A0004#1AC4F0B003F94B12
(97890.0) X 000A0005#9CB7EBA800000000
(97900.0) X 000A0003#F41EFC8806A40000
(97910.0) X 000A0004#1A46F1B804E04B12
(97920.0) X 000A0005#9CB7EBA800000000
(97930.0) X 000A0003#F3E9FC5D06180000
(97940.0) X 000A0005#9CB7EBA800000000
(97950.0) X 000A0003#F3C6FC4105BD0000
(97960.0) X 000A0004#1826F44A06294B12
(97970.0) X 000A0002#00170B0600021E3A
(97980.0) X 000A0003#F394FC19054E0000
(97990.0) X 000A0004#1644F5A006AD4B12
(98000.0) X 000A0005#9CB7EBA800000000
(98010.0) X 000A0003#F35DFBF304F00000
(98020.0) X 000A0005#9CB7EBA800000000
(98030.0) X 000A0003#F31EFBD504AC0000
(98040.0) X 000A0004#123AF75E07714B12
(98050.0) X 000A0005#9CB7EBA800000000
(98060.0) X 000A0003#F2F5FBC104810000
(98070.0) X 000A0004#10D7F7D307D04B12
(98080.0) X 000A0005#9CB7EBA800000000
(98090.0) X 000A0003#F2BEFB9E04430000
(98100.0) X 000A0004#0ED4F8A608624B12
(98110.0) X 000A0002#00170B0600021E3A
(98120.0) X 000A0003#F28DFB77040E0000
(98130.0) X 000A0005#9CB7EBA800000000
(98140.0) X 000A0003#F272FB5503F30000
(98150.0) X 000A0004#0B70F9FD09724B12
(98160.0) X 000A0005#9CB7EBA800000000
(98170.0) X 000A0003#F24CFB2303D30000
(98180.0) X 000A0004#0973FAAC0A214B12
(98190.0) X 000A0005#9CB7EBA800000000
(98200.0) X 000A0003#F22AFAEF03C10000
(98210.0) X 000A0005#9CB7EBA800000000
(98220.0) X 000A0003#F213FABD03B30000
(98230.0) X 000A0004#05A0FBE60BA04B12
(98240.0) X 000A0002#00170B0600021E3A
(98250.0) X 000A0003#F207FA9C03AC0000
(98260.0) X 000A0004#0462FC510C1E4B12
(98270.0) X 000A0005#9CB7EBA800000000
(98280.0) X 000A0003#F1FDFA7403920000
(98290.0) X 000A0005#9CB7EBA800000000
(98300.0) X 000A0003#F1F7FA5903720000
(98310.0) X 000A0004#00BAFDD50D774B12
(98320.0) X 000A0005#9CB7EBA800000000
(98330.0) X 000A0003#F1F5FA4C03580000
(98340.0) X 000A0004#FF78FE530DD54B12
(98350.0) X 000A0005#9CB7EBA800000000
(98360.0) X 000A0003#F1F6FA41032B0000
(98370.0) X 000A0005#9CB7EBA800000000
(98380.0) X 000A0002#00170B0600021E3A
(98390.0) X 000A0003#F1F4FA3A02F60000
(98400.0) X 000A0005#9CB7EBA800000000
(98410.0) X 000A0003#F1F2FA3702D00000
(98420.0) X 000A0004#F88500E80F8C4B12
(98430.0) X 000A0005#9CB7EBA800000000
(98440.0) X 000A0003#F1F4FA3602A30000
(98450.0) X 000A0004#F4F00243106D4B12
(98460.0) X 000A0005#9CB7EBA800000000
(98470.0) X 000A0003#F1FAFA35027A0000
(98480.0) X 000A0005#9CB7EBA800000000
(98490.0) X 000A0003#F214FA4802700000
(98500.0) X 000A0004#ED1005B512144B12
(98510.0) X 000A0002#00170B0600021E3A
(98520.0) X 000A0003#F224FA5B026A0000
(98530.0) X 000A0004#EA7E070E12A14B12
(98540.0) X 000A0005#9CB7EBA800000000
(98550.0) X 000A0003#F248FA8D02890000
(98560.0) X 000A0005#9CB7EBA800000000
(98570.0) X 000A0003#F271FAC902BB0000
(98580.0) X 000A0004#E3C50B3F149E4B12
(98590.0) X 000A0005#9CB7EBA800000000
(98600.0) X 000A0003#F29EFAF502FD0000
(98610.0) X 000A0004#E2040C7115364B12
(98620.0) X 000A0005#9CB7EBA800000000
(98630.0) X 000A0003#F2DFFB36035C0000
(98640.0) X 000A0005#9CB7EBA800000000
(98650.0) X 000A0002#00170B0600021E3A
(98660.0) X 000A0003#F336FB7603CD0000
(98670.0) X 000A0005#9CB7EBA800000000
(98680.0) X 000A0003#F36EFBA004150000
(98690.0) X 000A0004#DCEB0FB516B24B12
(98700.0) X 000A0005#9CB7EBA800000000
(98710.0) X 000A0003#F3D7FBE104810000
(98720.0) X 000A0004#DB7D10B216E14B12
(98730.0) X 000A0005#9CB7EBA800000000
(98740.0) X 000A0003#F43CFC1C04E80000
(98750.0) X 000A0005#9CB7EBA800000000
(98760.0) X 000A0003#F4B0FC5C054B0000
(98770.0) X 000A0004#D90912BD169F4B12
(98780.0) X 000A0002#00170B0600021E3A
(98790.0) X 000A0003#F4FAFC86058A0000
(98800.0) X 000A0004#D84D136E167D4B12
(98810.0) X 000A0005#9CB7EBA800000000
(98820.0) X 000A0003#F56FFCE905F10000
(98830.0) X 000A0005#9CB7EBA800000000
(98840.0) X 000A0003#F5E3FD4C06540000
(98850.0) X 000A0004#D681152016764B12
(98860.0) X 000A0005#9DFFEBA800000000
(98870.0) X 000A0003#F633FD9106940000
(98880.0) X 000A0004#D604158B167B4B12
(98890.0) X 000A0005#9DFFEBA800000000
(98900.0) X 000A0003#F6ADFDF706ED0000
(98910.0) X 000A0000#0000000000000000
(98920.0) X 000A0002#00170B0600021E3A
(98930.0) X 000A0003#F72CFE5C073A0000
(98940.0) X 000A0005#9DFFEBA800000000
(98950.0) X 000A0003#F7A9FEC307780000
(98960.0) X 000A0004#D44E171116184B12
(98970.0) X 000A0005#9DFFEBA800000000
(98980.0) X 000A0003#F7FCFF0D079D0000
(98990.0) X 000A0005#9DFFEBA800000000
(99000.0) X 000A0003#F874FF8107D20000
(99010.0) X 000A0004#D3DF181215B04B12
(99020.0) X 000A0005#9DFFEBA800000000
(99030.0) X 000A0003#F8E6000208070000
(99040.0) X 000A0004#D3A0188A15904B12
(99050.0) X 000A0002#00170B0600021E3A
(99060.0) X 000A0003#F933005C08250000
(99070.0) X 000A0004#D35D18CF15854B12
(99080.0) X 000A0005#9DFFEBA800000000
(99090.0) X 000A0003#F9A700E7084A0000
(99100.0) X 000A0005#9DFFEBA800000000
(99110.0) X 000A0003#FA22018008610000
(99120.0) X 000A0004#D1EA197A157C4B12
(99130.0) X 000A0005#9DFFEBA800000000
(99140.0) X 000A0003#FA7501E8086C0000
(99150.0) X 000A0004#D15919D8158F4B12
(99160.0) X 000A0005#9DFFEBA800000000
(99170.0) X 000A0003#FAEC0283086D0000
(99180.0) X 000A0000#0000000000000000
(99190.0) X 000A0002#00170B0600021E3A
(99200.0) X 000A0003#FB5D031D08670000
(99210.0) X 000A0005#9DFFEBA800000000
(99220.0) X 000A0003#FBD103B6086E0000
(99230.0) X 000A0004#CECF1D0C16A34B12
(99240.0) X 000A0005#9DFFEBA800000000
(99250.0) X 000A0003#FC1E041908760000
(99260.0) X 000A0005#9DFFEBA800000000
(99270.0) X 000A0003#FC92049A088F0000
(99280.0) X 000A0004#CDD71ED917424B12
(99290.0) X 000A0005#9DFFEBA800000000
(99300.0) X 000A0003#FD02050D08AD0000
(99310.0) X 000A0004#CDC51FB9175F4B12
(99320.0) X 000A0002#00170B0600021E3A
(99330.0) X 000A0003#FD43054F08CB0000
(99340.0) X 000A0004#CE01202B175E4B12
(99350.0) X 000A0005#9DFFEBA800000000
(99360.0) X 000A0003#FDA105AD08F60000
(99370.0) X 000A0005#9DFFEBA800000000
(99380.0) X 000A0003#FDE80608091A0000
(99390.0) X 000A0004#CF9120B717014B12
(99400.0) X 000A0005#9DFFEBA800000000
(99410.0) X 000A0003#FE16064209310000
(99420.0) X 000A0004#D02220AC16D74B12
(99430.0) X 000A0005#9DFFEBA800000000
(99440.0) X 000A0003#FE4F069D092E0000
(99450.0) X 000A0001#0000000000000000
(99460.0) X 000A0002#00170B0600021E3A
(99470.0) X 000A0003#FE8006F7092A0000
(99480.0) X 000A0005#9DFFEBA800000000
(99490.0) X 000A0003#FEA7076209090000
(99500.0) X 000A0004#D2D2202715F14B12
(99510.0) X 000A0005#9DFFEBA800000000
(99520.0) X 000A0003#FEC007A608F40000
(99530.0) X 000A0005#9DFFEBA800000000
(99540.0) X 000A0003#FEE7080D08D10000
(99550.0) X 000A0004#D47E1FBB158F4B12
(99560.0) X 000A0005#9DFFEBA800000000
(99570.0) X 000A0003#FF0E086F08AE0000
(99580.0) X 000A0004#D5AB1F52153E4B12
(99590.0) X 000A0002#00170B0600021E3A
(99600.0) X 000A0003#FF2908AE08960000
(99610.0) X 000A0005#9DFFEBA800000000
(99620.0) X 000A0003#FF50090808710000
(99630.0) X 000A0004#D7C51E7014814B12
(99640.0) X 000A0005#9DFFEBA800000000
(99650.0) X 000A0003#FF77096408490000
(99660.0) X 000A0004#D9131DD114034B12
(99670.0) X 000A0005#9DFFEBA800000000
(99680.0) X 000A0003#FF90099F082F0000
(99690.0) X 000A0004#D9F81D5C13A44B12
(99700.0) X 000A0005#9DFFEBA800000000
(99710.0) X 000A0003#FFB509F807FB0000
(99720.0) X 000A0001#0000000000000000
(99730.0) X 000A0002#00170B0600021E3A
(99740.0) X 000A0003#FFDA0A4F07C30000
(99750.0) X 000A0005#9DFFEBA800000000
(99760.0) X 000A0003#00000AA307820000
(99770.0) X 000A0004#DDF21B7311A64B12
(99780.0) X 000A0005#9DFFEBA800000000
(99790.0) X 000A0003#00190AD907550000
(99800.0) X 000A0005#9DFFEBA800000000
(99810.0) X 000A0003#003F0B2707100000
(99820.0) X 000A0004#DFD01AC610564B12
(99830.0) X 000A0005#9DFFEBA800000000
(99840.0) X 000A0003#00620B7106CF0000
(99850.0) X 000A0004#E0DA1A7F0F894B12
(99860.0) X 000A0002#00170B0600021E3A
(99870.0) X 000A0003#00790BA106A60000
(99880.0) X 000A0005#9DFFEBA800000000
(99890.0) X 000A0003#009B0BE606790000
(99900.0) X 000A0004#E2801A160E2C4B12
(99910.0) X 000A0005#9DFFEBA800000000
(99920.0) X 000A0003#00BD0C27064F0000
(99930.0) X 000A0004#E38B19B90D524B12
(99940.0) X 000A0005#9DFFEBA800000000
(99950.0) X 000A0003#00D60C4E06350000
(99960.0) X 000A0004#E44419650CB24B12
(99970.0) X 000A0005#9DFFEBA800000000
(99980.0) X 000A0003#00FC0C8106100000
(99990.0) X 000A0002#00170B0600021E3A
(100000.0) X 000A0003#01220CB605E60000
(100010.0) X 000A0004#E657185D0A9C4B12
(100020.0) X 000A0005#9DFFEBA800000000
(100030.0) X 000A0003#01460CEB05BB0000
(100040.0) X 000A0004#E7361812099D4B12
(100050.0) X 000A0005#9DFFEBA800000000
(100060.0) X 000A0003#01620D1105990000
(100070.0) X 000A0005#9DFFEBA800000000
(100080.0) X 000A0003#01890D4D05690000
(100090.0) X 000A0004#E89517E908404B12
(100100.0) X 000A0005#9DFFEBA800000000
(100110.0) X 000A0003#01B30D85053D0000
(100120.0) X 000A0005#9DFFEBA800000000
(100130.0) X 000A0002#00170B0600021E3A
(100140.0) X 000A0003#01CF0DA905220000
(100150.0) X 000A0005#9DFFEBA800000000
(100160.0) X 000A0003#01FE0DD305060000
(100170.0) X 000A0004#EAE317A006634B12
(100180.0) X 000A0005#9DFFEBA800000000
(100190.0) X 000A0003#022D0DF604F20000
(100200.0) X 000A0005#9DFFEBA800000000
(100210.0) X 000A0003#02590E0504F00000
(100220.0) X 000A0004#ECBA171604E14B12
(100230.0) X 000A0005#9DFFEBA800000000
(100240.0) X 000A0003#029A0E1C04EE0000
(100250.0) X 000A0004#EDDB169603BC4B12
(100260.0) X 000A0002#00170B0600021E3A
(100270.0) X 000A0003#02DE0E3704EF0000
(100280.0) X 000A0005#9DFFEBA800000000
(100290.0) X 000A0003#031E0E5004EF0000
(100300.0) X 000A0004#EFF2156A01434B12
(100310.0) X 000A0005#9DFFEBA800000000
(100320.0) X 000A0003#03440E6504ED0000
(100330.0) X 000A0005#9DFFECF000000000
(100340.0) X 000A0003#037A0E8404E90000
(100350.0) X 000A0004#F14D1451FF654B12
(100360.0) X 000A0005#9DFFECF000000000
(100370.0) X 000A0003#03AC0E9C04E70000
(100380.0) X 000A0004#F1FD139BFE704B12
(100390.0) X 000A0002#00170B0600021E3A
(100400.0) X 000A0003#03CC0EAB04E50000
(100410.0) X 000A0005#9DFFECF000000000
(100420.0) X 000A0003#04020EB304EA0000
(100430.0) X 000A0004#F359122CFD0B4B12
(100440.0) X 000A0005#9DFFECF000000000
(100450.0) X 000A0003#043C0EBC04F50000
(100460.0) X 000A0004#F44A110DFC384B12
(100470.0) X 000A0005#9DFFECF000000000
(100480.0) X 000A0003#04690EC105020000
(100490.0) X 000A0005#9DFFECF000000000
(100500.0) X 000A0003#04AF0EC9050D0000
(100510.0) X 000A0004#F5C10EB9FAEE4B12
(100520.0) X 000A0002#00170B0600021E3B
(100530.0) X 000A0003#04FB0ED405070000
(100540.0) X 000A0004#F6970D16FA404B12
(100550.0) X 000A0005#9DFFECF000000000
(100560.0) X 000A0003#05470EDD050E0000
(100570.0) X 000A0005#9DFFECF000000000
(100580.0) X 000A0003#057D0EE105220000
(100590.0) X 000A0004#F7E50A01F9134B12
(100600.0) X 000A0005#9DFFECF000000000
(100610.0) X 000A0003#05CC0EE3053F0000
(100620.0) X 000A0005#9DFFECF000000000
(100630.0) X 000A0003#06190EE005580000
(100640.0) X 000A0004#F8A10630F79F4B12
(100650.0) X 000A0002#00170B0600021E3B
(100660.0) X 000A0003#06440EE1056C0000
(100670.0) X 000A0004#F8A80518F7404B12
(100680.0) X 000A0005#9DFFECF000000000
(100690.0) X 000A0003#067B0EE705900000
(100700.0) X 000A0005#9DFFECF000000000
(100710.0) X 000A0003#06AD0EE905B60000
(100720.0) X 000A0004#F8CD028BF6E24B12
(100730.0) X 000A0005#9DFFECF000000000
(100740.0) X 000A0003#06DC0EE805DD0000
(100750.0) X 000A0004#F9070161F70A4B12
(100760.0) X 000A0005#9DFFECF000000000
(100770.0) X 000A0003#06FA0EE705F20000
(100780.0) X 000A0002#00170B0600021E3B
(100790.0) X 000A0003#07230EE806110000
(100800.0) X 000A0004#F97EFEEDF7854B12
(100810.0) X 000A0005#9DFFECF000000000
(100820.0) X 000A0003#07400EC2062F0000
(100830.0) X 000A0005#9DFFECF000000000
(100840.0) X 000A0003#074F0E9C06420000
(100850.0) X 000A0004#FA65FBD3F7424B12
(100860.0) X 000A0005#9DFFECF000000000
(100870.0) X 000A0003#075B0E59065C0000
(100880.0) X 000A0004#FB40F9F9F6D24B12
(100890.0) X 000A0005#9DFFECF000000000
(100900.0) X 000A0003#07630E1306720000
(100910.0) X 000A0000#0000000000000000
(100920.0) X 000A0002#00170B0600021E3B
(100930.0) X 000A0003#07610DF306830000
(100940.0) X 000A0005#9DFFECF000000000
(100950.0) X 000A0003#075E0DC4069C0000
(100960.0) X 000A0004#FEC3F554F64A4B12
(100970.0) X 000A0005#9DFFECF000000000
(100980.0) X 000A0003#07610D9706B90000
(100990.0) X 000A0005#9DFFECF000000000
(101000.0) X 000A0003#07660D6D06D40000
(101010.0) X 000A0004#0187F274F6594B12
(101020.0) X 000A0005#9DFFECF000000000
(101030.0) X 000A0003#076F0D5506F00000
(101040.0) X 000A0005#9DFFECF000000000
(101050.0) X 000A0002#00170B0600021E3B
(101060.0) X 000A0003#077D0D3207170000
(101070.0) X 000A0005#9DFFECF000000000
(101080.0) X 000A0003#07750D0B07640000
(101090.0) X 000A0004#05D3EE9FF7B34B12
(101100.0) X 000A0005#9DFFECF000000000
(101110.0) X 000A0003#07700CF207960000
(101120.0) X 000A0005#9DFFECF000000000
(101130.0) X 000A0003#075F0CC207FF0000
(101140.0) X 000A0004#099DEB26F8824B12
(101150.0) X 000A0005#9DFFECF000000000
(101160.0) X 000A0003#074C0C9408590000
(101170.0) X 000A0004#0C12E926F8E84B12
(101180.0) X 000A0002#00170B0600021E3B
(101190.0) X 000A0003#073C0C6D08860000
(101200.0) X 000A0005#9DFFECF000000000
(101210.0) X 000A0003#07250C3308C90000
(101220.0) X 000A0004#0F9EE699F98C4B12
(101230.0) X 000A0005#9DFFECF000000000
(101240.0) X 000A0003#06FC0C0E090C0000
(101250.0) X 000A0005#9DFFECF000000000
(101260.0) X 000A0003#06E20BF609370000
(101270.0) X 000A0004#12CCE467FAD74B12
(101280.0) X 000A0005#9DFFECF000000000
(101290.0) X 000A0003#06B20BC909740000
(101300.0) X 000A0004#1461E340FBB04B12
(101310.0) X 000A0002#00170B0600021E3B
(101320.0) X 000A0003#06830B9909AA0000
(101330.0) X 000A0005#9F47ECF000000000
(101340.0) X 000A0003#06540B5E09D40000
(101350.0) X 000A0004#16A1E20DFD3B4B12
(101360.0) X 000A0005#9F47ECF000000000
(101370.0) X 000A0003#06330B3409F10000
(101380.0) X 000A0004#171DE203FDA64B12
(101390.0) X 000A0005#9F47ECF000000000
(101400.0) X 000A0003#05FE0AF00A1D0000
(101410.0) X 000A0005#9F47ECF000000000
(101420.0) X 000A0003#05CA0AA70A5C0000
(101430.0) X 000A0004#1864E282FEC24B12
(101440.0) X 000A0002#00170B0600021E3B
(101450.0) X 000A0003#05A50A6E0A8B0000
(101460.0) X 000A0004#18F2E2AAFF004B12
(101470.0) X 000A0005#9F47ECF000000000
(101480.0) X 000A0003#056A0A190AD30000
(101490.0) X 000A0005#9F47ECF000000000
(101500.0) X 000A0003#052A09C10B210000
(101510.0) X 000A0004#1B64E316FF8E4B12
(101520.0) X 000A0005#9F47ECF000000000
(101530.0) X 000A0003#04FD09850B5C0000
(101540.0) X 000A0005#9F47ECF000000000
(101550.0) X 000A0003#04B9092A0BBC0000
(101560.0) X 000A0004#1E1BE36800334B12
(101570.0) X 000A0002#00170B0600021E3B
(101580.0) X 000A0003#047208C90C020000
(101590.0) X 000A0004#1FD0E3BA008D4B12
(101600.0) X 000A0005#9F47ECF000000000
(101610.0) X 000A0003#042B08690C3B0000
(101620.0) X 000A0005#9F47ECF000000000
(101630.0) X 000A0003#03F8082A0C560000
(101640.0) X 000A0004#2273E488012F4B12
(101650.0) X 000A0005#9F47ECF000000000
(101660.0) X 000A0003#03AE07CD0C7C0000
(101670.0) X 000A0004#23ECE51301A94B12
(101680.0) X 000A0005#9F47ECF000000000
(101690.0) X 000A0003#036307710C8B0000
(101700.0) X 000A0002#00170B0600021E3B
(101710.0) X 000A0003#033207350C8C0000
(101720.0) X 000A0004#2616E63602A14B12
(101730.0) X 000A0005#9F47ECF000000000
(101740.0) X 000A0003#02ED06D90C880000
(101750.0) X 000A0005#9F47ECF000000000
(101760.0) X 000A0003#02AC06800C820000
(101770.0) X 000A0004#27F1E7F303BE4B12
(101780.0) X 000A0005#9F47ECF000000000
(101790.0) X 000A0003#0284063E0C760000
(101800.0) X 000A0004#2869E893040F4B12
(101810.0) X 000A0005#9F47ECF000000000
(101820.0) X 000A0003#024A05DE0C650000
(101830.0) X 000A0000#0000000000000000
(101840.0) X 000A0002#00170B0600021E3B
(101850.0) X 000A0003#020E05820C4B0000
(101860.0) X 000A0005#9F47ECF000000000
(101870.0) X 000A0003#01D5052A0C350000
(101880.0) X 000A0004#2981EBC805224B12
(101890.0) X 000A0005#9F47ECF000000000
(101900.0) X 000A0003#01AF04E60C2C0000
(101910.0) X 000A0005#9F47ECF000000000
(101920.0) X 000A0003#017804830C1E0000
(101930.0) X 000A0004#2962ED83057F4B12
(101940.0) X 000A0005#9F47ECF000000000
(101950.0) X 000A0003#014404170C120000
(101960.0) X 000A0005#9F47ECF000000000
(101970.0) X 000A0002#00170B0600021E3B
(101980.0) X 000A0003#012303D10C0B0000
(101990.0) X 000A0005#9F47ECF000000000
(102000.0) X 000A0003#00F303620C090000
(102010.0) X 000A0004#28B9F03405A74B12
(102020.0) X 000A0005#9F47ECF000000000
(102030.0) X 000A0003#00C802F90C040000
(102040.0) X 000A0005#9F47ECF000000000
(102050.0) X 000A0003#00A3028A0BF70000
(102060.0) X 000A0004#27C0F1BA056B4B12
(102070.0) X 000A0005#9F47ECF000000000
(102080.0) X 000A0003#008B02430BE80000
(102090.0) X 000A0004#2728F22405514B12
(102100.0) X 000A0002#00170B0600021E3B
(102110.0) X 000A0003#006A01D80BC80000
(102120.0) X 000A0005#9F47ECF000000000
(102130.0) X 000A0003#004901730BAB0000
(102140.0) X 000A0004#2485F35705034B12
(102150.0) X 000A0005#9F47ECF000000000
(102160.0) X 000A0003#003101320B980000
(102170.0) X 000A0005#9F47ECF000000000
(102180.0) X 000A0003#001000D30B800000
(102190.0) X 000A0004#2186F42704F84B12
(102200.0) X 000A0005#9F47ECF000000000
(102210.0) X 000A0003#FFEF00740B6E0000
(102220.0) X 000A0004#1F89F48C04FF4B12
(102230.0) X 000A0002#00170B0600021E3B
(102240.0) X 000A0003#FFDC00360B660000
(102250.0) X 000A0005#9F47ECF000000000
(102260.0) X 000A0003#FFC1FFDD0B5F0000
(102270.0) X 000A0004#1C3CF520050C4B12
(102280.0) X 000A0005#9F47ECF000000000
(102290.0) X 000A0003#FFA8FF870B5B0000
(102300.0) X 000A0004#1A41F56B051D4B12
(102310.0) X 000A0005#9F47ECF000000000
(102320.0) X 000A0003#FF8FFF350B590000
(102330.0) X 000A0005#9F47ECF000000000
(102340.0) X 000A0003#FF80FEFF0B5A0000
(102350.0) X 000A0004#16ECF5D905484B12
(102360.0) X 000A0002#00170B0600021E3B
(102370.0) X 000A0003#FF6AFEB00B5E0000
(102380.0) X 000A0004#14EEF5FF05514B12
(102390.0) X 000A0005#9F47ECF000000000
(102400.0) X 000A0003#FF54FE680B620000
(102410.0) X 000A0005#9F47ECF000000000
(102420.0) X 000A0003#FF45FE3B0B660000
(102430.0) X 000A0004#11ACF633054A4B12
(102440.0) X 000A0005#9F47ECF000000000
(102450.0) X 000A0003#FF2BFE040B630000
(102460.0) X 000A0005#9F47ECF000000000
(102470.0) X 000A0003#FF10FDD50B5C0000
(102480.0) X 000A0004#0D4EF68005A84B12
(102490.0) X 000A0002#00170B0600021E3B
(102500.0) X 000A0003#FEFDFDBA0B4F0000
(102510.0) X 000A0004#0BA3F6A605DF4B12
(102520.0) X 000A0005#9F47ECF000000000
(102530.0) X 000A0003#FEE1FD960B3D0000
(102540.0) X 000A0005#9F47ECF000000000
(102550.0) X 000A0003#FEC9FD7C0B320000
(102560.0) X 000A0004#069CF79906F14B12
(102570.0) X 000A0005#9F47ECF000000000
(102580.0) X 000A0003#FEB4FD660B2C0000
(102590.0) X 000A0004#0462F87907AA4B12
(102600.0) X 000A0005#9F47ECF000000000
(102610.0) X 000A0003#FEB2FD550B2A0000
(102620.0) X 000A0002#00170B0600021E3B
(102630.0) X 000A0003#FEAFFD3D0B280000
(102640.0) X 000A0004#00FEFA2A08A74B12
(102650.0) X 000A0005#9F47ECF000000000
(102660.0) X 000A0003#FEBEFD190B490000
(102670.0) X 000A0005#9F47ECF000000000
(102680.0) X 000A0003#FEC7FD010B5E0000
(102690.0) X 000A0004#FDC8FBC9090A4B12
(102700.0) X 000A0005#9F47ECF000000000
(102710.0) X 000A0003#FEE4FCDE0B960000
(102720.0) X 000A0004#FBFDFC9909074B12
(102730.0) X 000A0005#9F47ECF000000000
(102740.0) X 000A0003#FF00FCBB0BCB0000
(102750.0) X 000A0000#0000000000000000
(102760.0) X 000A0002#00170B0600021E3B
(102770.0) X 000A0003#FF11FCB40BEA0000
(102780.0) X 000A0005#9F47ECF000000000
(102790.0) X 000A0003#FF2AFCA90C150000
(102800.0) X 000A0004#F79DFEAD08914B12
(102810.0) X 000A0005#9F47ECF000000000
(102820.0) X 000A0003#FF3EFCB80C2E0000
(102830.0) X 000A0005#9F47ECF000000000
(102840.0) X 000A0003#FF52FCC70C450000
(102850.0) X 000A0004#F4E2013A08A84B12
(102860.0) X 000A0005#9F47ECF000000000
(102870.0) X 000A0003#FF62FCCE0C540000
(102880.0) X 000A0005#9F47ECF000000000
(102890.0) X 000A0002#00170B0600021E3B
(102900.0) X 000A0003#FF7DFCD60C6D0000
(102910.0) X 000A0005#9F47ECF000000000
(102920.0) X 000A0003#FFA0FCDA0C8C0000
(102930.0) X 000A0004#F2B905AF090C4B12
(102940.0) X 000A0005#9F47ECF000000000
(102950.0) X 000A0003#FFBBFCDD0CA60000
(102960.0) X 000A0005#9F47ECF000000000
(102970.0) X 000A0003#FFEEFCD90CD40000
(102980.0) X 000A0004#F2A9088C08E74B12
(102990.0) X 000A0005#9F47ECF000000000
(103000.0) X 000A0003#0026FCD30D060000
(103010.0) X 000A0004#F3060A1508974B12
(103020.0) X 000A0002#00170B0600021E3B
(103030.0) X 000A0003#0067FCC90D410000
(103040.0) X 000A0005#9F47ECF000000000
(103050.0) X 000A0003#0093FCCB0D680000
(103060.0) X 000A0004#F3F30C1A07B74B12
(103070.0) X 000A0005#9F47ECF000000000
(103080.0) X 000A0003#00D5FCD70DA00000
(103090.0) X 000A0005#9F47ECF000000000
(103100.0) X 000A0003#011EFCE70DDA0000
(103110.0) X 000A0004#F5340DE506BA4B12
(103120.0) X 000A0005#9F47ECF000000000
(103130.0) X 000A0003#014FFCF20E010000
(103140.0) X 000A0004#F5B40E59067D4B12
(103150.0) X 000A0002#00170B0600021F00
(103160.0) X 000A0003#01A1FD010E380000
(103170.0) X 000A0005#9F47ECF000000000
(103180.0) X 000A0003#01F3FD100E6C0000
(103190.0) X 000A0004#F6AA0F0E060A4B12
(103200.0) X 000A0005#9F47ECF000000000
(103210.0) X 000A0003#0226FD170E890000
(103220.0) X 000A0004#F6CB0F1D05F64B12
(103230.0) X 000A0005#9F47ECF000000000
(103240.0) X 000A0003#026DFD1D0EB20000
(103250.0) X 000A0005#9F47ECF000000000
(103260.0) X 000A0003#02ADFD230ED10000
(103270.0) X 000A0004#F6CE0F0005B34B12
(103280.0) X 000A0002#00170B0600021F00
(103290.0) X 000A0003#02E9FD270EEC0000
(103300.0) X 000A0004#F6AD0EC7057D4B12
(103310.0) X 000A0005#9F47ECF000000000
(103320.0) X 000A0003#0310FD2D0EF70000
(103330.0) X 000A0005#9F47ECF000000000
(103340.0) X 000A0003#0349FD350F070000
(103350.0) X 000A0004#F6640E42051B4B12
(103360.0) X 000A0005#9F47ECF000000000
(103370.0) X 000A0003#0376FD420F060000
(103380.0) X 000A0005#9F47ECF000000000
(103390.0) X 000A0003#0393FD4C0F050000
(103400.0) X 000A0004#F5EC0DCB04E34B12
(103410.0) X 000A0002#00170B0600021F00
(103420.0) X 000A0003#03BCFD5F0EF70000
(103430.0) X 000A0004#F59A0DB004D54B12
(103440.0) X 000A0005#9F47ECF000000000
(103450.0) X 000A0003#03E2FD720EE90000
(103460.0) X 000A0005#9F47ECF000000000
(103470.0) X 000A0003#03FCFD850ED90000
(103480.0) X 000A0004#F5000D9F04B04B12
(103490.0) X 000A0005#9F47ECF000000000
(103500.0) X 000A0003#0421FDA00EC10000
(103510.0) X 000A0004#F48E0DBC04A74B12
(103520.0) X 000A0005#9F47ECF000000000
(103530.0) X 000A0003#0446FDC30E9F0000
(103540.0) X 000A0002#00170B0600021F00
(103550.0) X 000A0003#0468FE020E230000
(103560.0) X 000A0004#F4DE0D5504A24B12
(103570.0) X 000A0005#9F47ECF000000000
(103580.0) X 000A0003#047EFE520D5A0000
(103590.0) X 000A0005#9F47ECF000000000
(103600.0) X 000A0003#049DFEC60C290000
(103610.0) X 000A0004#F9AC09A503844B12
(103620.0) X 000A0005#9F47ECF000000000
(103630.0) X 000A0003#04AAFEDC0AEB0000
(103640.0) X 000A0004#F9740827036C4B12
(103650.0) X 000A0005#9F47ECF000000000
(103660.0) X 000A0003#04D6FED60A8D0000
(103670.0) X 000A0000#0000000000000000
(103680.0) X 000A0002#00170B0600021F00
(103690.0) X 000A0003#0524FEBD0A9F0000
(103700.0) X 000A0005#9F47ECF000000000
(103710.0) X 000A0003#0583FE9C0ABF0000
(103720.0) X 000A0004#F99005D4032C4B12
(103730.0) X 000A0005#9F47ECF000000000
(103740.0) X 000A0003#05B8FE880AEB0000
(103750.0) X 000A0005#9F47ECF000000000
(103760.0) X 000A0003#05E4FE800B060000
(103770.0) X 000A0004#FA00043102C34B12
(103780.0) X 000A0005#9F47ECF000000000
(103790.0) X 000A0003#05F7FE890B120000
(103800.0) X 000A0005#A08FECF000000000
(103810.0) X 000A0002#00170B0600021F00
(103820.0) X 000A0003#060EFE940B250000
(103830.0) X 000A0005#A08FECF000000000
(103840.0) X 000A0003#061CFE9A0B390000
(103850.0) X 000A0004#FABA029A02974B12
(103860.0) X 000A0005#A08FECF000000000
(103870.0) X 000A0003#061FFEA00B430000
(103880.0) X 000A0005#A08FECF000000000
(103890.0) X 000A0003#061EFEAC0B4C0000
(103900.0) X 000A0004#FB51020602E64B12
(103910.0) X 000A0005#A08FECF000000000
(103920.0) X 000A0003#061BFEB80B630000
(103930.0) X 000A0004#FBA501CC030B4B12
(103940.0) X 000A0002#00170B0600021F00
(103950.0) X 000A0003#0619FEC00B760000
(103960.0) X 000A0005#A08FECF000000000
(103970.0) X 000A0003#0618FECD0B970000
(103980.0) X 000A0004#FC110192031D4B12
(103990.0) X 000A0005#A08FECF000000000
(104000.0) X 000A0003#0618FEDC0BB90000
(104010.0) X 000A0005#A08FECF000000000
(104020.0) X 000A0003#0618FEEA0BDA0000
(104030.0) X 000A0004#FC7A015203004B12
(104040.0) X 000A0005#A08FECF000000000
(104050.0) X 000A0003#0618FEF40BF10000
(104060.0) X 000A0004#FCA1013E02FF4B12
(104070.0) X 000A0002#00170B0600021F00
(104080.0) X 000A0003#0614FF000C1A0000
(104090.0) X 000A0005#A08FECF000000000
(104100.0) X 000A0003#060EFF0B0C450000
(104110.0) X 000A0004#FD1A014003494B12
(104120.0) X 000A0005#A08FECF000000000
(104130.0) X 000A0003#060DFF130C5E0000
(104140.0) X 000A0004#FD3B014803704B12
(104150.0) X 000A0005#A08FECF000000000
(104160.0) X 000A0003#060BFF1D0C820000
(104170.0) X 000A0005#A08FECF000000000
(104180.0) X 000A0003#060BFF250CA20000
(104190.0) X 000A0004#FDDA013F04134B12
(104200.0) X 000A0002#00170B0600021F00
(104210.0) X 000A0003#060AFF2A0CB60000
(104220.0) X 000A0004#FE0E012D044A4B12
(104230.0) X 000A0005#A08FEE3800000000
(104240.0) X 000A0003#060AFF320CD20000
(104250.0) X 000A0005#A08FEE3800000000
(104260.0) X 000A0003#060AFF3C0CED0000
(104270.0) X 000A0004#FE5F011204634B12
(104280.0) X 000A0005#A08FEE3800000000
(104290.0) X 000A0003#060AFF420D000000
(104300.0) X 000A0005#A08FEE3800000000
(104310.0) X 000A0003#060BFF4C0D1A0000
(104320.0) X 000A0004#FE7B00F8040A4B12
(104330.0) X 000A0002#00170B0600021F00
(104340.0) X 000A0003#060BFF560D330000
(104350.0) X 000A0004#FE8D00EB03DA4B12
(104360.0) X 000A0005#A08FEE3800000000
(104370.0) X 000A0003#060AFF600D4B0000
(104380.0) X 000A0005#A08FEE3800000000
(104390.0) X 000A0003#0609FF670D5B0000
(104400.0) X 000A0004#FEAC00DB03914B12
(104410.0) X 000A0005#A08FEE3800000000
(104420.0) X 000A0003#0608FF710D710000
(104430.0) X 000A0004#FEBD00D003684B12
(104440.0) X 000A0005#A08FEE3800000000
(104450.0) X 000A0003#0605FF790D860000
(104460.0) X 000A0002#00170B0600021F00
(104470.0) X 000A0003#0604FF7F0D940000
(104480.0) X 000A0004#FED500C003244B12
(104490.0) X 000A0005#A08FEE3800000000
(104500.0) X 000A0003#0602FF860DA80000
(104510.0) X 000A0005#A08FEE3800000000
(104520.0) X 000A0003#0600FF8E0DBA0000
(104530.0) X 000A0004#FEF500AD02DC4B12
(104540.0) X 000A0005#A08FEE3800000000
(104550.0) X 000A0003#05FFFF960DCB0000
(104560.0) X 000A0004#FF0300A402BF4B12
(104570.0) X 000A0005#A08FEE3800000000
(104580.0) X 000A0003#05FEFF9B0DD60000
(104590.0) X 000A0001#0000000000000000
(104600.0) X 000A0002#00170B0600021F00
(104610.0) X 000A0003#05FCFFA10DE60000
(104620.0) X 000A0005#A08FEE3800000000
(104630.0) X 000A0003#05FAFFA80DF50000
(104640.0) X 000A0004#FF28008F02714B12
(104650.0) X 000A0005#A08FEE3800000000
(104660.0) X 000A0003#05FAFFAC0E000000
(104670.0) X 000A0005#A08FEE3800000000
(104680.0) X 000A0003#05F7FFB00E080000
(104690.0) X 000A0004#FF25006202324B12
(104700.0) X 000A0005#A08FEE3800000000
(104710.0) X 000A0003#05F2FFB30E100000
(104720.0) X 000A0005#A08FEE3800000000
(104730.0) X 000A0002#00170B0600021F00
(104740.0) X 000A0003#05F2FFB90E160000
(104750.0) X 000A0005#A08FEE3800000000
(104760.0) X 000A0003#05F9FFC80E200000
(104770.0) X 000A0004#FF06FE1600AE4B12
(104780.0) X 000A0005#A08FEE3800000000
(104790.0) X 000A0003#05F8FFD60E2E0000
(104800.0) X 000A0005#A08FEE3800000000
(104810.0) X 000A0003#05F3FFE20E3E0000
(104820.0) X 000A0004#FEE9FDA500054B12
(104830.0) X 000A0005#A08FEE3800000000
(104840.0) X 000A0003#05E3FFEE0E480000
(104850.0) X 000A0004#FEE3FD87FFCC4B12
(104860.0) X 000A0002#00170B0600021F00
(104870.0) X 000A0003#05CC00020E570000
(104880.0) X 000A0005#A08FEE3800000000
(104890.0) X 000A0003#05BB00100E5D0000
(104900.0) X 000A0004#FEE1FCF8FF694B12
(104910.0) X 000A0005#A08FEE3800000000
(104920.0) X 000A0003#05B200170E610000
(104930.0) X 000A0005#A08FEE3800000000
(104940.0) X 000A0003#05A0001E0E680000
(104950.0) X 000A0004#FED6FCD9FF114B12
(104960.0) X 000A0005#A08FEE3800000000
(104970.0) X 000A0003#058C00220E700000
(104980.0) X 000A0004#FED2FD09FEE44B12
(104990.0) X 000A0002#00170B0600021F00
(105000.0) X 000A0003#058600250E780000
(105010.0) X 000A0005#A08FEE3800000000
(105020.0) X 000A0003#057D002A0E830000
(105030.0) X 000A0004#FEC5FD48FE7B4B12
(105040.0) X 000A0005#A08FEE3800000000
(105050.0) X 000A0003#057E00350E8A0000
(105060.0) X 000A0004#FEC9FD4FFE584B12
(105070.0) X 000A0005#A08FEE3800000000
(105080.0) X 000A0003#057F003D0E900000
(105090.0) X 000A0005#A08FEE3800000000
(105100.0) X 000A0003#057B00410E960000
(105110.0) X 000A0004#FEE2FD5BFE644B12
(105120.0) X 000A0002#00170B0600021F00
(105130.0) X 000A0003#057400480E9D0000
(105140.0) X 000A0004#FEE7FD40FE5C4B12
(105150.0) X 000A0005#A08FEE3800000000
(105160.0) X 000A0003#0571003D0EA50000
(105170.0) X 000A0005#A08FEE3800000000
(105180.0) X 000A0003#056F00360EAA0000
(105190.0) X 000A0004#FEFCFD01FE274B12
(105200.0) X 000A0005#A08FEE3800000000
(105210.0) X 000A0003#0564002E0EB00000
(105220.0) X 000A0005#A08FEE3800000000
(105230.0) X 000A0003#055700290EB40000
(105240.0) X 000A0004#FEDFFC5BFDFA4B12
(105250.0) X 000A0002#00170B0600021F00
(105260.0) X 000A0003#054C002A0EB30000
(105270.0) X 000A0004#FED8FC25FDE64B12
(105280.0) X 000A0005#A08FEE3800000000
(105290.0) X 000A0003#0541002C0EBB0000
(105300.0) X 000A0005#A08FEE3800000000
(105310.0) X 000A0003#053400290ED70000
(105320.0) X 000A0004#FEE6FB82FD994B12
(105330.0) X 000A0005#A08FEE3800000000
(105340.0) X 000A0003#052700240EF70000
(105350.0) X 000A0004#FEE5FB45FD634B12
(105360.0) X 000A0005#A08FEE3800000000
(105370.0) X 000A0003#051D001E0F110000
(105380.0) X 000A0002#00170B0600021F00
(105390.0) X 000A0003#050C00210F1E0000
(105400.0) X 000A0004#FEA8FAD6FCDD4B12
(105410.0) X 000A0005#A08FEE3800000000
(105420.0) X 000A0003#04F900390EFA0000
(105430.0) X 000A0005#A08FEE3800000000
(105440.0) X 000A0003#04F1004C0EE00000
(105450.0) X 000A0004#FE52FA95FC734B12
(105460.0) X 000A0005#A08FEE3800000000
(105470.0) X 000A0003#04EC006B0EB70000
(105480.0) X 000A0004#FE2FFA72FC404B12
(105490.0) X 000A0005#A08FEE3800000000
(105500.0) X 000A0003#04E600810ECC0000
(105510.0) X 000A0000#0000000000000000
(105520.0) X 000A0002#00170B0600021F00
(105530.0) X 000A0003#04E000890EFE0000
(105540.0) X 000A0005#A08FEE3800000000
(105550.0) X 000A0003#04D2008E0F260000
(105560.0) X 000A0004#FDF3FA3BFC064B12
(105570.0) X 000A0005#A08FEE3800000000
(105580.0) X 000A0003#04B100930F690000
(105590.0) X 000A0005#A08FEE3800000000
(105600.0) X 000A0003#049300900F950000
(105610.0) X 000A0004#FE0AFA7CFC5D4B12
(105620.0) X 000A0005#A08FEE3800000000
(105630.0) X 000A0003#0481008C0FAA0000
(105640.0) X 000A0005#A08FEE3800000000
(105650.0) X 000A0002#00170B0600021F00
(105660.0) X 000A0003#0465008B0FBC0000
(105670.0) X 000A0005#A08FEE3800000000
(105680.0) X 000A0003#044A008C0FC60000
(105690.0) X 000A0004#FE34FAE7FC684B12
(105700.0) X 000A0005#A08FEE3800000000
(105710.0) X 000A0003#043C008C0FCB0000
(105720.0) X 000A0005#A08FEE3800000000
(105730.0) X 000A0003#042900880FD20000
(105740.0) X 000A0004#FE56FB74FC854B12
(105750.0) X 000A0005#A08FEE3800000000
(105760.0) X 000A0003#041200880FD40000
(105770.0) X 000A0004#FE6DFBE6FCA44B12
(105780.0) X 000A0002#00170B0600021F01
(105790.0) X 000A0003#03F9008B0FD70000
(105800.0) X 000A0005#A08FEE3800000000
(105810.0) X 000A0003#03EC008C0FD70000
(105820.0) X 000A0004#FEB3FC9DFCE64B12
(105830.0) X 000A0005#A08FEE3800000000
(105840.0) X 000A0003#03DA008E0FD60000
(105850.0) X 000A0005#A08FEE3800000000
(105860.0) X 000A0003#03CE008D0FD80000
(105870.0) X 000A0004#FF59FDF5FDB94B12
(105880.0) X 000A0005#A08FEE3800000000
(105890.0) X 000A0003#03C7008C0FD80000
(105900.0) X 000A0004#FFBFFE88FE3F4B12
(105910.0) X 000A0002#00170B0600021F01
(105920.0) X 000A0003#03AB007E0FF40000
(105930.0) X 000A0005#A08FEE3800000000
(105940.0) X 000A0003#0397007110090000
(105950.0) X 000A0004#0035FFEC00664B12
(105960.0) X 000A0005#A08FEE3800000000
(105970.0) X 000A0003#0393006E100F0000
(105980.0) X 000A0004#0077006D01324B12
(105990.0) X 000A0005#A08FEE3800000000
(106000.0) X 000A0003#038D006910160000
(106010.0) X 000A0005#A08FEE3800000000
(106020.0) X 000A0003#0397006710150000
(106030.0) X 000A0004#00FF017603664B12
(106040.0) X 000A0002#00170B0600021F01
(106050.0) X 000A0003#03A3006510110000
(106060.0) X 000A0005#A08FEE3800000000
(106070.0) X 000A0003#03AD0065100C0000
(106080.0) X 000A0004#012D01AF04674B12
(106090.0) X 000A0005#A08FEE3800000000
(106100.0) X 000A0003#03BB006310060000
(106110.0) X 000A0004#013601A0047B4B12
(106120.0) X 000A0005#A08FEE3800000000
(106130.0) X 000A0003#03C8006010040000
(106140.0) X 000A0005#A08FEE3800000000
(106150.0) X 000A0003#03CF005E10030000
(106160.0) X 000A0004#01220164041C4B12
(106170.0) X 000A0002#00170B0600021F01
(106180.0) X 000A0003#03D7005D10010000
(106190.0) X 000A0004#011B014B03DE4B12
(106200.0) X 000A0005#A08FEE3800000000
(106210.0) X 000A0003#03DF005D10000000
(106220.0) X 000A0005#A08FEE3800000000
(106230.0) X 000A0003#03E4005C0FFE0000
(106240.0) X 000A0004#00FF014103844B12
(106250.0) X 000A0005#A1D7EE3800000000
(106260.0) X 000A0003#03EB005A0FFC0000
(106270.0) X 000A0004#00F2013203554B12
(106280.0) X 000A0005#A1D7EE3800000000
(106290.0) X 000A0003#03F100570FFA0000
(106300.0) X 000A0002#00170B0600021F01
(106310.0) X 000A0003#03F700560FF70000
(106320.0) X 000A0004#00DE011303094B12
(106330.0) X 000A0005#A1D7EE3800000000
(106340.0) X 000A0003#03FA00550FF40000
(106350.0) X 000A0005#A1D7EE3800000000
(106360.0) X 000A0003#040000540FF10000
(106370.0) X 000A0004#00CD010202CF4B12
(106380.0) X 000A0005#A1D7EE3800000000
(106390.0) X 000A0003#040500520FEE0000
(106400.0) X 000A0004#00C400F702AD4B12
(106410.0) X 000A0005#A1D7EE3800000000
(106420.0) X 000A0003#040800520FEC0000
(106430.0) X 000A0001#0000000000000000
(106440.0) X 000A0002#00170B0600021F01
(106450.0) X 000A0003#040E00500FEB0000
(106460.0) X 000A0005#A1D7EE3800000000
(106470.0) X 000A0003#0412004F0FE80000
(106480.0) X 000A0004#00AE00DA025D4B12
(106490.0) X 000A0005#A1D7EE3800000000
(106500.0) X 000A0003#0417004E0FE60000
(106510.0) X 000A0005#A1D7EE3800000000
(106520.0) X 000A0003#0419004D0FE40000
(106530.0) X 000A0004#00A100CB022E4B12
(106540.0) X 000A0005#A1D7EE3800000000
(106550.0) X 000A0003#041C004A0FE20000
(106560.0) X 000A0005#A1D7EE3800000000
(106570.0) X 000A0002#00170B0600021F01
(106580.0) X 000A0003#041F00480FE00000
(106590.0) X 000A0005#A1D7EE3800000000
(106600.0) X 000A0003#042100460FDF0000
(106610.0) X 000A0004#008D00B401EA4B12
(106620.0) X 000A0005#A1D7EE3800000000
(106630.0) X 000A0003#042500450FDC0000
(106640.0) X 000A0005#A1D7EE3800000000
(106650.0) X 000A0003#042800450FDA0000
(106660.0) X 000A0004#008200A401BD4B12
(106670.0) X 000A0005#A1D7EE3800000000
(106680.0) X 000A0003#042A00440FD80000
(106690.0) X 000A0004#007E00A001AE4B12
(106700.0) X 000A0002#00170B0600021F01
(106710.0) X 000A0003#042D00430FD50000
(106720.0) X 000A0005#A1D7EE3800000000
(106730.0) X 000A0003#043000420FD40000
(106740.0) X 000A0004#0073009301874B12
(106750.0) X 000A0005#A1D7EE3800000000
(106760.0) X 000A0003#043100420FD20000
(106770.0) X 000A0005#A1D7EE3800000000
(106780.0) X 000A0003#043200410FCF0000
(106790.0) X 000A0004#006A008901694B12
(106800.0) X 000A0005#A1D7EE3800000000
(106810.0) X 000A0003#043300410FCD0000
(106820.0) X 000A0004#0064008401584B12
(106830.0) X 000A0002#00170B0600021F01
(106840.0) X 000A0003#043400410FCB0000
(106850.0) X 000A0005#A1D7EE3800000000
(106860.0) X 000A0003#043500400FCA0000
(106870.0) X 000A0004#005D007B013C4B12
(106880.0) X 000A0005#A1D7EE3800000000
(106890.0) X 000A0003#043700400FC70000
(106900.0) X 000A0004#00580075012D4B12
(106910.0) X 000A0005#A1D7EE3800000000
(106920.0) X 000A0003#043900400FC40000
(106930.0) X 000A0005#A1D7EE3800000000
(106940.0) X 000A0003#043B003F0FC30000
(106950.0) X 000A0004#0053006C01154B12
(106960.0) X 000A0002#00170B0600021F01
(106970.0) X 000A0003#043E003E0FC10000
(106980.0) X 000A0005#A1D7EE3800000000
(106990.0) X 000A0003#0441003E0FC00000
(107000.0) X 000A0004#004B006200FA4B12
(107010.0) X 000A0005#A1D7EE3800000000
(107020.0) X 000A0003#0444003D0FC00000
(107030.0) X 000A0004#0047005F00EE4B12
(107040.0) X 000A0005#A1D7EE3800000000
(107050.0) X 000A0003#0446003D0FC00000
(107060.0) X 000A0005#A1D7EE3800000000
(107070.0) X 000A0003#0448003C0FC10000
(107080.0) X 000A0004#0042005900DA4B12
(107090.0) X 000A0002#00170B0600021F01
(107100.0) X 000A0003#0449003C0FC30000
(107110.0) X 000A0004#003F005500CF4B12
(107120.0) X 000A0005#A1D7EE3800000000
(107130.0) X 000A0003#044A003B0FC30000
(107140.0) X 000A0005#A1D7EE3800000000
(107150.0) X 000A0003#044B003B0FC20000
(107160.0) X 000A0004#003B004F00BE4B12
(107170.0) X 000A0005#A1D7EE3800000000
(107180.0) X 000A0003#044D003A0FC10000
(107190.0) X 000A0005#A1D7EE3800000000
(107200.0) X 000A0003#044E00390FC00000
(107210.0) X 000A0004#0036004A00AF4B12
(107220.0) X 000A0002#00170B0600021F01
(107230.0) X 000A0003#045000380FBE0000
(107240.0) X 000A0004#0034004700A64B12
(107250.0) X 000A0005#A1D7EE3800000000
(107260.0) X 000A0003#045100380FBD0000
(107270.0) X 000A0005#A1D7EE3800000000
(107280.0) X 000A0003#045200380FBD0000
(107290.0) X 000A0004#002F004400984B12
(107300.0) X 000A0005#A1D7EE3800000000
(107310.0) X 000A0003#045300390FBC0000
(107320.0) X 000A0004#002C004100904B12
(107330.0) X 000A0005#A1D7EE3800000000
(107340.0) X 000A0003#0455003A0FBD0000
(107350.0) X 000A0001#0000000000000000
(107360.0) X 000A0002#00170B0600021F01
(107370.0) X 000A0003#0457003B0FBE0000
(107380.0) X 000A0005#A1D7EE3800000000
(107390.0) X 000A0003#0457003C0FBD0000
(107400.0) X 000A0004#002B003B00834B12
(107410.0) X 000A0005#A1D7EE3800000000
(107420.0) X 000A0003#0456003D0FBD0000
(107430.0) X 000A0005#A1D7EE3800000000
(107440.0) X 000A0003#0456003D0FBB0000
(107450.0) X 000A0004#0028003500744B12
(107460.0) X 000A0005#A1D7EE3800000000
(107470.0) X 000A0003#0456003D0FBB0000
(107480.0) X 000A0005#A1D7EE3800000000
(107490.0) X 000A0002#00170B0600021F01
(107500.0) X 000A0003#0457003C0FBA0000
(107510.0) X 000A0005#A1D7EE3800000000
(107520.0) X 000A0003#0458003A0FBA0000
(107530.0) X 000A0004#0023002F00654B12
(107540.0) X 000A0005#A1D7EE3800000000
(107550.0) X 000A0003#045900390FB90000
(107560.0) X 000A0005#A1D7EE3800000000
(107570.0) X 000A0003#045A00360FB90000
(107580.0) X 000A0004#0020002B005C4B12
(107590.0) X 000A0005#A1D7EE3800000000
(107600.0) X 000A0003#045A00350FB90000
(107610.0) X 000A0004#001F002900564B12
(107620.0) X 000A0002#00170B0600021F01
(107630.0) X 000A0003#045A00340FB90000
(107640.0) X 000A0005#A1D7EE3800000000
(107650.0) X 000A0003#045A00340FB90000
(107660.0) X 000A0004#001C0027004E4B12
(107670.0) X 000A0005#A1D7EE3800000000
(107680.0) X 000A0003#045B00330FB90000
(107690.0) X 000A0005#A1D7EF8000000000
(107700.0) X 000A0003#045C00310FB90000
(107710.0) X 000A0004#0019002400464B12
(107720.0) X 000A0005#A1D7EF8000000000
(107730.0) X 000A0003#045C00300FB90000
(107740.0) X 000A0004#0018002400434B12
(107750.0) X 000A0002#00170B0600021F01
(107760.0) X 000A0003#045C002F0FB90000
(107770.0) X 000A0005#A1D7EF8000000000
(107780.0) X 000A0003#045C002E0FBA0000
(107790.0) X 000A0004#00150021003B4B12
(107800.0) X 000A0005#A1D7EF8000000000
(107810.0) X 000A0003#045D002E0FBB0000
(107820.0) X 000A0004#0015002000374B12
(107830.0) X 000A0005#A1D7EF8000000000
(107840.0) X 000A0003#045D002D0FBC0000
(107850.0) X 000A0005#A1D7EF8000000000
(107860.0) X 000A0003#045F002D0FBE0000
(107870.0) X 000A0004#0014001F00314B12
(107880.0) X 000A0002#00170B0600021F01
(107890.0) X 000A0003#0460002D0FBF0000
(107900.0) X 000A0005#A1D7EF8000000000
(107910.0) X 000A0003#0460002D0FC10000
(107920.0) X 000A0004#0014001C002B4B12
(107930.0) X 000A0005#A1D7EF8000000000
(107940.0) X 000A0003#0460002C0FC30000
(107950.0) X 000A0004#0013001B00284B12
(107960.0) X 000A0005#A1D7EF8000000000
(107970.0) X 000A0003#045F002C0FC50000
(107980.0) X 000A0005#A1D7EF8000000000
(107990.0) X 000A0003#045F002C0FC40000
(108000.0) X 000A0004#0012001A00244B12
(108010.0) X 000A0002#00170B0600021F01
(108020.0) X 000A0003#0460002C0FC30000
(108030.0) X 000A0004#0010001900214B12
(108040.0) X 000A0005#A1D7EF8000000000
(108050.0) X 000A0003#0460002B0FC20000
(108060.0) X 000A0005#A1D7EF8000000000
(108070.0) X 000A0003#0461002B0FC10000
(108080.0) X 000A0004#000E0018001C4B12
(108090.0) X 000A0005#A1D7EF8000000000
(108100.0) X 000A0003#0460002A0FBE0000
(108110.0) X 000A0005#A1D7EF8000000000
(108120.0) X 000A0003#045E00290FBC0000
(108130.0) X 000A0004#000E001800184B12
(108140.0) X 000A0002#00170B0600021F01
(108150.0) X 000A0003#045E002A0FB80000
(108160.0) X 000A0004#000D001800164B12
(108170.0) X 000A0005#A1D7EF8000000000
(108180.0) X 000A0003#045D002A0FB60000
(108190.0) X 000A0005#A1D7EF8000000000
(108200.0) X 000A0003#045D002A0FB60000
(108210.0) X 000A0004#000C001500124B12
(108220.0) X 000A0005#A1D7EF8000000000
(108230.0) X 000A0003#045D002A0FB50000
(108240.0) X 000A0004#000B001500114B12
(108250.0) X 000A0005#A1D7EF8000000000
(108260.0) X 000A0003#045D002A0FB60000
(108270.0) X 000A0002#00170B0600021F02
(108280.0) X 000A0003#045D00290FB80000
(108290.0) X 000A0004#000A0014000D4B12
(108300.0) X 000A0005#A1D7EF8000000000
(108310.0) X 000A0003#045E00290FB80000
(108320.0) X 000A0005#A1D7EF8000000000
(108330.0) X 000A0003#045F00290FB80000
(108340.0) X 000A0004#00090013000D4B12
(108350.0) X 000A0005#A1D7EF8000000000
(108360.0) X 000A0003#046100290FB90000
(108370.0) X 000A0004#000B0012000D4B12
(108380.0) X 000A0005#A1D7EF8000000000
(108390.0) X 000A0003#046300290FBA0000
(108400.0) X 000A0000#0000000000000000
(108410.0) X 000A0002#00170B0600021F02
(108420.0) X 000A0003#046300290FBB0000
(108430.0) X 000A0005#A1D7EF8000000000
(108440.0) X 000A0003#046400290FBB0000
(108450.0) X 000A0004#0009001000094B12
(108460.0) X 000A0005#A1D7EF8000000000
(108470.0) X 000A0003#046500280FBA0000
(108480.0) X 000A0005#A1D7EF8000000000
(108490.0) X 000A0003#046600270FB80000
(108500.0) X 000A0004#0007001000054B12
(108510.0) X 000A0005#A1D7EF8000000000
(108520.0) X 000A0003#046700260FB70000
(108530.0) X 000A0004#0007000F00044B12
(108540.0) X 000A0002#00170B0600021F02
(108550.0) X 000A0003#046700250FB60000
(108560.0) X 000A0005#A1D7EF8000000000
(108570.0) X 000A0003#046700240FB50000
(108580.0) X 000A0004#0005000E00014B12
(108590.0) X 000A0005#A1D7EF8000000000
(108600.0) X 000A0003#046800240FB30000
(108610.0) X 000A0005#A1D7EF8000000000
(108620.0) X 000A0003#046A00220FB10000
(108630.0) X 000A0004#0004000EFFFE4B12
(108640.0) X 000A0005#A1D7EF8000000000
(108650.0) X 000A0003#046D00210FB00000
(108660.0) X 000A0004#0004000EFFFD4B12
(108670.0) X 000A0002#00170B0600021F02
(108680.0) X 000A0003#046F00210FB00000
(108690.0) X 000A0005#A1D7EF8000000000
(108700.0) X 000A0003#047000210FB10000
(108710.0) X 000A0004#0002000DFFFB4B12
(108720.0) X 000A0005#A31FEF8000000000
(108730.0) X 000A0003#047100200FB20000
(108740.0) X 000A0004#0003000DFFFA4B12
(108750.0) X 000A0005#A31FEF8000000000
(108760.0) X 000A0003#047200200FB20000
(108770.0) X 000A0005#A31FEF8000000000
(108780.0) X 000A0003#047300210FB30000
(108790.0) X 000A0004#0002000DFFF94B12
(108800.0) X 000A0002#00170B0600021F02
(108810.0) X 000A0003#047300210FB20000
(108820.0) X 000A0005#A31FEF8000000000
(108830.0) X 000A0003#047200200FB20000
(108840.0) X 000A0004#0002000CFFF74B12
(108850.0) X 000A0005#A31FEF8000000000
(108860.0) X 000A0003#047200200FB20000
(108870.0) X 000A0004#0002000CFFF64B12
(108880.0) X 000A0005#A31FEF8000000000
(108890.0) X 000A0003#047100210FB20000
(108900.0) X 000A0005#A31FEF8000000000
(108910.0) X 000A0003#046F00220FB30000
(108920.0) X 000A0004#00010009FFF64B12
(108930.0) X 000A0002#00170B0600021F02
(108940.0) X 000A0003#046C00230FB40000
(108950.0) X 000A0004#00000009FFF44B12
(108960.0) X 000A0005#A31FEF8000000000
(108970.0) X 000A0003#046B00240FB30000
(108980.0) X 000A0005#A31FEF8000000000
(108990.0) X 000A0003#046900260FB10000
(109000.0) X 000A0004#0000000AFFF34B12
(109010.0) X 000A0005#A31FEF8000000000
(109020.0) X 000A0003#046800270FB10000
(109030.0) X 000A0005#A31FEF8000000000
(109040.0) X 000A0003#046800280FB00000
(109050.0) X 000A0004#0000000BFFF34B12
(109060.0) X 000A0002#00170B0600021F02
(109070.0) X 000A0003#046900290FB10000
(109080.0) X 000A0004#FFFF000BFFF34B12
(109090.0) X 000A0005#A31FEF8000000000
(109100.0) X 000A0003#046A002A0FB20000
(109110.0) X 000A0005#A31FEF8000000000
(109120.0) X 000A0003#046A00290FB00000
(109130.0) X 000A0004#0000000CFFF24B12
(109140.0) X 000A0005#A31FEF8000000000
(109150.0) X 000A0003#046B00290FAE0000
(109160.0) X 000A0004#FFFF000BFFF24B12
(109170.0) X 000A0005#A31FEF8000000000
(109180.0) X 000A0003#046E00270FAF0000
(109190.0) X 000A0002#00170B0600021F02
(109200.0) X 000A0003#046F00260FAF0000
(109210.0) X 000A0004#FFFE000AFFF14B12
(109220.0) X 000A0005#A31FEF8000000000
(109230.0) X 000A0003#046F00260FAF0000
(109240.0) X 000A0005#A31FEF8000000000
(109250.0) X 000A0003#046F00260FB00000
(109260.0) X 000A0004#FFFF000AFFF04B12
(109270.0) X 000A0005#A31FEF8000000000
(109280.0) X 000A0003#046E00280FB10000
(109290.0) X 000A0004#FFFF0009FFF04B12
(109300.0) X 000A0005#A31FEF8000000000
(109310.0) X 000A0003#046E00290FB10000
(109320.0) X 000A0000#0000000000000000
(109330.0) X 000A0002#00170B0600021F02
(109340.0) X 000A0003#046C002A0FB20000
(109350.0) X 000A0005#A31FEF8000000000
(109360.0) X 000A0003#046B002A0FB30000
(109370.0) X 000A0004#FFFE000BFFEF4B12
(109380.0) X 000A0005#A31FEF8000000000
(109390.0) X 000A0003#0469002B0FB40000
(109400.0) X 000A0005#A31FEF8000000000
(109410.0) X 000A0003#0468002B0FB50000
(109420.0) X 000A0004#FFFD000BFFEE4B12
(109430.0) X 000A0005#A31FEF8000000000
(109440.0) X 000A0003#0468002C0FB60000
(109450.0) X 000A0005#A31FEF8000000000
(109460.0) X 000A0002#00170B0600021F02
(109470.0) X 000A0003#0468002C0FB50000
(109480.0) X 000A0005#A31FEF8000000000
(109490.0) X 000A0003#0467002C0FB50000
(109500.0) X 000A0004#FFFC000BFFEE4B12
(109510.0) X 000A0005#A31FEF8000000000
(109520.0) X 000A0003#0466002C0FB40000
(109530.0) X 000A0005#A31FEF8000000000
(109540.0) X 000A0003#0465002C0FB40000
(109550.0) X 000A0004#FFFC0008FFEF4B12
(109560.0) X 000A0005#A31FEF8000000000
(109570.0) X 000A0003#0464002C0FB40000
(109580.0) X 000A0004#FFFB0008FFEE4B12
(109590.0) X 000A0002#00170B0600021F02
(109600.0) X 000A0003#0463002C0FB50000
(109610.0) X 000A0005#A31FEF8000000000
(109620.0) X 000A0003#0463002B0FB40000
(109630.0) X 000A0004#FFFA0007FFEE4B12
(109640.0) X 000A0005#A31FEF8000000000
(109650.0) X 000A0003#0462002B0FB20000
(109660.0) X 000A0004#FFFA0007FFED4B12
(109670.0) X 000A0005#A31FEF8000000000
(109680.0) X 000A0003#0463002B0FB10000
(109690.0) X 000A0005#A31FEF8000000000
(109700.0) X 000A0003#0463002B0FB00000
(109710.0) X 000A0004#FFFA0007FFEE4B12
(109720.0) X 000A0002#00170B0600021F02
(109730.0) X 000A0003#0465002A0FAE0000
(109740.0) X 000A0005#A31FEF8000000000
(109750.0) X 000A0003#0465002A0FAD0000
(109760.0) X 000A0004#FFFA0006FFED4B12
(109770.0) X 000A0005#A31FEF8000000000
(109780.0) X 000A0003#0466002A0FAC0000
(109790.0) X 000A0004#FFFA0006FFEE4B12
(109800.0) X 000A0005#A31FEF8000000000
(109810.0) X 000A0003#046600290FAC0000
(109820.0) X 000A0005#A31FEF8000000000
(109830.0) X 000A0003#046600290FAB0000
(109840.0) X 000A0004#FFFA0005FFED4B12
(109850.0) X 000A0002#00170B0600021F02
(109860.0) X 000A0003#046600290FAA0000
(109870.0) X 000A0004#FFFA0006FFEE4B12
(109880.0) X 000A0005#A31FEF8000000000
(109890.0) X 000A0003#046700290FAB0000
(109900.0) X 000A0005#A31FEF8000000000
(109910.0) X 000A0003#046800290FAC0000
(109920.0) X 000A0004#FFF90007FFEE4B12
(109930.0) X 000A0005#A31FEF8000000000
(109940.0) X 000A0003#046900280FAD0000
(109950.0) X 000A0005#A31FEF8000000000
(109960.0) X 000A0003#046A00260FAE0000
(109970.0) X 000A0004#FFF90007FFED4B12
(109980.0) X 000A0002#00170B0600021F02
(109990.0) X 000A0003#046900240FB10000
(110000.0) X 000A0004#FFF90007FFEC4B12
(110010.0) X 000A0005#A31FEF8000000000
(110020.0) X 000A0003#046900230FB20000
(110030.0) X 000A0005#A31FEF8000000000
(110040.0) X 000A0003#046A00230FB20000
(110050.0) X 000A0004#FFFA0006FFED4B12
(110060.0) X 000A0005#A31FEF8000000000
(110070.0) X 000A0003#046B00220FB20000
(110080.0) X 000A0004#FFFB0006FFED4B12
(110090.0) X 000A0005#A31FEF8000000000
(110100.0) X 000A0003#046B00220FB30000
(110110.0) X 000A0002#00170B0600021F02
(110120.0) X 000A0003#046C00220FB30000
(110130.0) X 000A0004#FFFC0005FFEE4B12
(110140.0) X 000A0005#A31FEF8000000000
(110150.0) X 000A0003#046D00230FB30000
(110160.0) X 000A0005#A31FEF8000000000
(110170.0) X 000A0003#046D00240FB40000
(110180.0) X 000A0004#FFFE0007FFEF4B12
(110190.0) X 000A0005#A31FEF8000000000
(110200.0) X 000A0003#046D00250FB50000
(110210.0) X 000A0004#FFFE0006FFEE4B12
(110220.0) X 000A0005#A31FEF8000000000
(110230.0) X 000A0003#046C00260FB60000
(110240.0) X 000A0000#0000000000000000
(110250.0) X 000A0002#00170B0600021F02
(110260.0) X 000A0003#046C00260FB60000
(110270.0) X 000A0005#A31FEF8000000000
(110280.0) X 000A0003#046C00270FB50000
(110290.0) X 000A0004#FFFC0006FFEE4B12
(110300.0) X 000A0005#A31FEF8000000000
(110310.0) X 000A0003#046D00260FB50000
(110320.0) X 000A0005#A31FEF8000000000
(110330.0) X 000A0003#046C00260FB60000
(110340.0) X 000A0004#FFFC0007FFED4B12
(110350.0) X 000A0005#A31FEF8000000000
(110360.0) X 000A0003#046C00260FB70000
(110370.0) X 000A0005#A31FEF8000000000